"# Channel 1"
"# Trace 1"
Frequency, Formatted Data, Formatted Data
+5.00000000000E+004, +5.21128874569E+001, -1.21531883440E-001
+3.00100050025E+005, +5.01742316883E+001, +7.43412722180E-002
+5.50200100050E+005, +5.01618430998E+001, +6.67855476497E-002
+8.00300150075E+005, +5.01385113492E+001, +1.37246869867E-001
+1.05040020010E+006, +5.01446289486E+001, +1.75901817459E-001
+1.30050025013E+006, +5.01481853121E+001, +2.59353459412E-001
+1.55060030015E+006, +5.01553518100E+001, +3.01450347272E-001
+1.80070035018E+006, +5.01890086183E+001, +3.36485171635E-001
+2.05080040020E+006, +5.01870278627E+001, +3.81475076773E-001
+2.30090045023E+006, +5.02130838380E+001, +4.03034139403E-001
+2.55100050025E+006, +5.02275942864E+001, +4.82386999017E-001
+2.80110055028E+006, +5.01966650013E+001, +5.68948544385E-001
+3.05120060030E+006, +5.02367016923E+001, +5.63396548185E-001
+3.30130065033E+006, +5.02248299775E+001, +5.88394018485E-001
+3.55140070035E+006, +5.02519054719E+001, +6.50786264282E-001
+3.80150075038E+006, +5.02878799961E+001, +7.06928431204E-001
+4.05160080040E+006, +5.02363281249E+001, +7.31723322043E-001
+4.30170085043E+006, +5.02989777256E+001, +7.55593477163E-001
+4.55180090045E+006, +5.03232697558E+001, +8.35457925229E-001
+4.80190095048E+006, +5.03793363486E+001, +8.56045641577E-001
+5.05200100050E+006, +5.03400644558E+001, +9.25536241366E-001
+5.30210105053E+006, +5.03828834699E+001, +9.87646180436E-001
+5.55220110055E+006, +5.04292811200E+001, +9.87697778632E-001
+5.80230115058E+006, +5.04287114276E+001, +1.05376002715E+000
+6.05240120060E+006, +5.04775101149E+001, +1.10049504147E+000
+6.30250125063E+006, +5.04514731216E+001, +1.14007267588E+000
+6.55260130065E+006, +5.05002181907E+001, +1.16808789097E+000
+6.80270135068E+006, +5.04990889837E+001, +1.21889825317E+000
+7.05280140070E+006, +5.05764003478E+001, +1.28023410820E+000
+7.30290145073E+006, +5.06276085908E+001, +1.27103485236E+000
+7.55300150075E+006, +5.06239819429E+001, +1.33675838408E+000
+7.80310155078E+006, +5.06581673047E+001, +1.38980006056E+000
+8.05320160080E+006, +5.06905383484E+001, +1.42349592986E+000
+8.30330165083E+006, +5.07630831008E+001, +1.45703730928E+000
+8.55340170085E+006, +5.07640116439E+001, +1.49780371332E+000
+8.80350175088E+006, +5.08093076613E+001, +1.53995706074E+000
+9.05360180090E+006, +5.08359083410E+001, +1.57512075898E+000
+9.30370185093E+006, +5.08658363902E+001, +1.61801560351E+000
+9.55380190095E+006, +5.09091945635E+001, +1.65689844434E+000
+9.80390195098E+006, +5.09541294778E+001, +1.68087276758E+000
+1.00540020010E+007, +5.10001726633E+001, +1.72392892811E+000
+1.03041020510E+007, +5.10269686891E+001, +1.75636691373E+000
+1.05542021011E+007, +5.10879573269E+001, +1.78505233727E+000
+1.08043021511E+007, +5.11209454645E+001, +1.82758252476E+000
+1.10544022011E+007, +5.11760923762E+001, +1.85136586367E+000
+1.13045022511E+007, +5.12203183886E+001, +1.89285291374E+000
+1.15546023012E+007, +5.12707091825E+001, +1.92541405694E+000
+1.18047023512E+007, +5.13140684157E+001, +1.96179157483E+000
+1.20548024012E+007, +5.13696281929E+001, +1.99667805593E+000
+1.23049024512E+007, +5.14117737023E+001, +2.01839055146E+000
+1.25550025013E+007, +5.14668334079E+001, +2.05037477502E+000
+1.28051025513E+007, +5.15295034951E+001, +2.07516170801E+000
+1.30552026013E+007, +5.15808093784E+001, +2.10953686567E+000
+1.33053026513E+007, +5.16376523678E+001, +2.13706012047E+000
+1.35554027014E+007, +5.16807755661E+001, +2.16230623471E+000
+1.38055027514E+007, +5.17420398986E+001, +2.18751334175E+000
+1.40556028014E+007, +5.18255424147E+001, +2.21160978856E+000
+1.43057028514E+007, +5.18649091714E+001, +2.24082620270E+000
+1.45558029015E+007, +5.19188643346E+001, +2.26190254733E+000
+1.48059029515E+007, +5.19916398237E+001, +2.28467012614E+000
+1.50560030015E+007, +5.20618476964E+001, +2.30483856582E+000
+1.53061030515E+007, +5.21118994880E+001, +2.32875960331E+000
+1.55562031016E+007, +5.21875995937E+001, +2.34917790180E+000
+1.58063031516E+007, +5.22395348665E+001, +2.36330237107E+000
+1.60564032016E+007, +5.23149543845E+001, +2.38371866866E+000
+1.63065032516E+007, +5.23895891729E+001, +2.39530245692E+000
+1.65566033017E+007, +5.24583499369E+001, +2.44366605455E+000
+1.68067033517E+007, +5.25267039689E+001, +2.44141919120E+000
+1.70568034017E+007, +5.25814596751E+001, +2.44915578162E+000
+1.73069034517E+007, +5.26653094548E+001, +2.46097304834E+000
+1.75570035018E+007, +5.27251270715E+001, +2.47933878894E+000
+1.78071035518E+007, +5.28147755596E+001, +2.48996338737E+000
+1.80572036018E+007, +5.28912717733E+001, +2.49276423614E+000
+1.83073036518E+007, +5.29589279420E+001, +2.50090335254E+000
+1.85574037019E+007, +5.30403270030E+001, +2.51187909512E+000
+1.88075037519E+007, +5.31209464788E+001, +2.51438942457E+000
+1.90576038019E+007, +5.31990315596E+001, +2.51853947276E+000
+1.93077038519E+007, +5.32837020837E+001, +2.51841102802E+000
+1.95578039020E+007, +5.33572678669E+001, +2.51422010440E+000
+1.98079039520E+007, +5.34295026664E+001, +2.53234401284E+000
+2.00580040020E+007, +5.35179173785E+001, +2.51094130928E+000
+2.03081040520E+007, +5.35981809455E+001, +2.52324102636E+000
+2.05582041021E+007, +5.36849295539E+001, +2.51585599095E+000
+2.08083041521E+007, +5.37632172312E+001, +2.51269105223E+000
+2.10584042021E+007, +5.38628839618E+001, +2.50344206662E+000
+2.13085042521E+007, +5.39513859096E+001, +2.49138722655E+000
+2.15586043022E+007, +5.40370694711E+001, +2.49472545423E+000
+2.18087043522E+007, +5.41294151219E+001, +2.48476055925E+000
+2.20588044022E+007, +5.42118345115E+001, +2.46645716441E+000
+2.23089044522E+007, +5.43105543499E+001, +2.44944241913E+000
+2.25590045023E+007, +5.43964415188E+001, +2.43716022793E+000
+2.28091045523E+007, +5.44823122329E+001, +2.41800734624E+000
+2.30592046023E+007, +5.45859406082E+001, +2.40636358245E+000
+2.33093046523E+007, +5.46855148671E+001, +2.38390819975E+000
+2.35594047024E+007, +5.47832696468E+001, +2.36474695797E+000
+2.38095047524E+007, +5.48746675208E+001, +2.33276597656E+000
+2.40596048024E+007, +5.49660361129E+001, +2.31148450167E+000
+2.43097048524E+007, +5.50690965410E+001, +2.28914088536E+000
+2.45598049025E+007, +5.51672295622E+001, +2.25361376856E+000
+2.48099049525E+007, +5.52614298246E+001, +2.21541137566E+000
+2.50600050025E+007, +5.53662029149E+001, +2.18356700700E+000
+2.53101050525E+007, +5.54685239269E+001, +2.15074935520E+000
+2.55602051026E+007, +5.55742291356E+001, +2.11197695729E+000
+2.58103051526E+007, +5.56737868538E+001, +2.07400359999E+000
+2.60604052026E+007, +5.57648341524E+001, +2.04167532114E+000
+2.63105052526E+007, +5.58815063065E+001, +1.99936392267E+000
+2.65606053027E+007, +5.59835234654E+001, +1.94162113540E+000
+2.68107053527E+007, +5.60916498000E+001, +1.90156338524E+000
+2.70608054027E+007, +5.61901146241E+001, +1.84379830246E+000
+2.73109054527E+007, +5.63098324807E+001, +1.78902139285E+000
+2.75610055028E+007, +5.64061064148E+001, +1.75557407180E+000
+2.78111055528E+007, +5.65269963275E+001, +1.69202996259E+000
+2.80612056028E+007, +5.66329086473E+001, +1.61343301682E+000
+2.83113056528E+007, +5.67354261965E+001, +1.55885745866E+000
+2.85614057029E+007, +5.68426853739E+001, +1.49484973908E+000
+2.88115057529E+007, +5.69506742503E+001, +1.42440483980E+000
+2.90616058029E+007, +5.70697091337E+001, +1.34969022553E+000
+2.93117058529E+007, +5.71811817971E+001, +1.29582892241E+000
+2.95618059030E+007, +5.72912665888E+001, +1.20154947288E+000
+2.98119059530E+007, +5.74086419638E+001, +1.14582310272E+000
+3.00620060030E+007, +5.75254369083E+001, +1.05361479975E+000
+3.03121060530E+007, +5.76412791081E+001, +9.58941502389E-001
+3.05622061031E+007, +5.77456075662E+001, +8.90533876848E-001
+3.08123061531E+007, +5.78729314287E+001, +7.87399179436E-001
+3.10624062031E+007, +5.79867993706E+001, +6.96247302687E-001
+3.13125062531E+007, +5.80965641653E+001, +5.90935591932E-001
+3.15626063032E+007, +5.82080322841E+001, +5.11030758201E-001
+3.18127063532E+007, +5.83235784377E+001, +4.05770532308E-001
+3.20628064032E+007, +5.84572622392E+001, +2.94990011348E-001
+3.23129064532E+007, +5.85572837297E+001, +1.79844760003E-001
+3.25630065033E+007, +5.86846998875E+001, +6.74557732837E-002
+3.28131065533E+007, +5.87961728138E+001, -4.52944978612E-002
+3.30632066033E+007, +5.89171439002E+001, -1.64139960437E-001
+3.33133066533E+007, +5.90368276353E+001, -2.80566546588E-001
+3.35634067034E+007, +5.91425833889E+001, -4.15534416111E-001
+3.38135067534E+007, +5.92680197040E+001, -5.46137849759E-001
+3.40636068034E+007, +5.93810358317E+001, -6.71388693158E-001
+3.43137068534E+007, +5.95035505620E+001, -8.14906129444E-001
+3.45638069035E+007, +5.96126315582E+001, -9.50852682844E-001
+3.48139069535E+007, +5.97331107801E+001, -1.10686491032E+000
+3.50640070035E+007, +5.98509775711E+001, -1.26296946785E+000
+3.53141070535E+007, +5.99645942936E+001, -1.40743247901E+000
+3.55642071036E+007, +6.00823836650E+001, -1.57720717275E+000
+3.58143071536E+007, +6.01924649423E+001, -1.74347282499E+000
+3.60644072036E+007, +6.03148263032E+001, -1.90888240331E+000
+3.63145072536E+007, +6.04341441906E+001, -2.08284741360E+000
+3.65646073037E+007, +6.05467434818E+001, -2.25527216264E+000
+3.68147073537E+007, +6.06570698538E+001, -2.44010868728E+000
+3.70648074037E+007, +6.07597669811E+001, -2.63029120482E+000
+3.73149074537E+007, +6.08773605234E+001, -2.81350809314E+000
+3.75650075038E+007, +6.09867436064E+001, -3.02442759869E+000
+3.78151075538E+007, +6.11108569712E+001, -3.23617774029E+000
+3.80652076038E+007, +6.12120584528E+001, -3.43977404592E+000
+3.83153076538E+007, +6.13173764434E+001, -3.66478943384E+000
+3.85654077039E+007, +6.14195980878E+001, -3.87362902823E+000
+3.88155077539E+007, +6.15284631736E+001, -4.10361748933E+000
+3.90656078039E+007, +6.16249836773E+001, -4.34246937049E+000
+3.93157078539E+007, +6.17377922205E+001, -4.57978990243E+000
+3.95658079040E+007, +6.18283347956E+001, -4.82251436621E+000
+3.98159079540E+007, +6.19227359208E+001, -5.07814118434E+000
+4.00660080040E+007, +6.20406573757E+001, -5.34315581479E+000
+4.03161080540E+007, +6.21271506023E+001, -5.61244856230E+000
+4.05662081041E+007, +6.22137518797E+001, -5.88903819552E+000
+4.08163081541E+007, +6.23056100447E+001, -6.16683368690E+000
+4.10664082041E+007, +6.23741034740E+001, -6.45851494774E+000
+4.13165082541E+007, +6.24647176988E+001, -6.75975637908E+000
+4.15666083042E+007, +6.25433929941E+001, -7.06845225116E+000
+4.18167083542E+007, +6.26326821003E+001, -7.37169141206E+000
+4.20668084042E+007, +6.26889355371E+001, -7.70069473978E+000
+4.23169084542E+007, +6.27701025640E+001, -8.02912995591E+000
+4.25670085043E+007, +6.28230980350E+001, -8.37640405212E+000
+4.28171085543E+007, +6.28967140642E+001, -8.73504959697E+000
+4.30672086043E+007, +6.29456776848E+001, -9.08683085497E+000
+4.33173086543E+007, +6.29949459846E+001, -9.46196587216E+000
+4.35674087044E+007, +6.30332974996E+001, -9.84305853715E+000
+4.38175087544E+007, +6.30728904496E+001, -1.02235360077E+001
+4.40676088044E+007, +6.30999198620E+001, -1.06304579984E+001
+4.43177088544E+007, +6.31275891054E+001, -1.10536692363E+001
+4.45678089045E+007, +6.31280140375E+001, -1.14796379796E+001
+4.48179089545E+007, +6.31581773824E+001, -1.18964227257E+001
+4.50680090045E+007, +6.31498066792E+001, -1.23513298583E+001
+4.53181090545E+007, +6.31467529309E+001, -1.28006376636E+001
+4.55682091046E+007, +6.31266100113E+001, -1.32740344154E+001
+4.58183091546E+007, +6.31036843212E+001, -1.37723518872E+001
+4.60684092046E+007, +6.30540879069E+001, -1.42695696581E+001
+4.63185092546E+007, +6.30101296330E+001, -1.47793235859E+001
+4.65686093047E+007, +6.29337106150E+001, -1.53062157218E+001
+4.68187093547E+007, +6.28575401797E+001, -1.58490594879E+001
+4.70688094047E+007, +6.27562784109E+001, -1.63994878632E+001
+4.73189094547E+007, +6.26562971317E+001, -1.69639178404E+001
+4.75690095048E+007, +6.25291409151E+001, -1.75606211712E+001
+4.78191095548E+007, +6.23699565713E+001, -1.81715517709E+001
+4.80692096048E+007, +6.22203440541E+001, -1.87872119426E+001
+4.83193096548E+007, +6.20183359136E+001, -1.94179224849E+001
+4.85694097049E+007, +6.18081800541E+001, -2.00792404400E+001
+4.88195097549E+007, +6.15630075806E+001, -2.07438486310E+001
+4.90696098049E+007, +6.12999851250E+001, -2.14261359216E+001
+4.93197098549E+007, +6.10118032516E+001, -2.21364354482E+001
+4.95698099050E+007, +6.06881243230E+001, -2.28609190558E+001
+4.98199099550E+007, +6.03140603674E+001, -2.35802059259E+001
+5.00700100050E+007, +5.99160102374E+001, -2.43219422094E+001
+5.03201100550E+007, +5.94873282426E+001, -2.51063295401E+001
+5.05702101051E+007, +5.90118941076E+001, -2.58784103473E+001
+5.08203101551E+007, +5.84812101661E+001, -2.66754670645E+001
+5.10704102051E+007, +5.78980075803E+001, -2.74906807933E+001
+5.13205102551E+007, +5.72675916868E+001, -2.83063397508E+001
+5.15706103052E+007, +5.65690582585E+001, -2.91306923791E+001
+5.18207103552E+007, +5.58237897398E+001, -2.99576663864E+001
+5.20708104052E+007, +5.50163965755E+001, -3.07875539501E+001
+5.23209104552E+007, +5.41136050675E+001, -3.16087511257E+001
+5.25710105053E+007, +5.31591593346E+001, -3.24514916076E+001
+5.28211105553E+007, +5.21091936962E+001, -3.32536601954E+001
+5.30712106053E+007, +5.09737511361E+001, -3.40367572766E+001
+5.33213106553E+007, +4.97610100759E+001, -3.48034320307E+001
+5.35714107054E+007, +4.84560677332E+001, -3.55488759140E+001
+5.38215107554E+007, +4.70446907824E+001, -3.62340261428E+001
+5.40716108054E+007, +4.55414691106E+001, -3.68596269212E+001
+5.43217108554E+007, +4.39358758615E+001, -3.74438325434E+001
+5.45718109055E+007, +4.22535831994E+001, -3.79371307450E+001
+5.48219109555E+007, +4.04410948534E+001, -3.83439865338E+001
+5.50720110055E+007, +3.85260913379E+001, -3.86294900660E+001
+5.53221110555E+007, +3.65346107105E+001, -3.87814367309E+001
+5.55722111056E+007, +3.44703730851E+001, -3.88197795992E+001
+5.58223111556E+007, +3.23279755385E+001, -3.86867508250E+001
+5.60724112056E+007, +3.01364711113E+001, -3.83659853618E+001
+5.63225112556E+007, +2.78980533395E+001, -3.78893860197E+001
+5.65726113057E+007, +2.56208312998E+001, -3.71874732858E+001
+5.68227113557E+007, +2.33791332760E+001, -3.62843280735E+001
+5.70728114057E+007, +2.11579713180E+001, -3.51545255631E+001
+5.73229114557E+007, +1.89927815322E+001, -3.38167227203E+001
+5.75730115058E+007, +1.69300903032E+001, -3.22572073505E+001
+5.78231115558E+007, +1.49907513315E+001, -3.04960617754E+001
+5.80732116058E+007, +1.32024876575E+001, -2.85189616747E+001
+5.83233116558E+007, +1.15868622614E+001, -2.63943984205E+001
+5.85734117059E+007, +1.01809298824E+001, -2.41190822527E+001
+5.88235117559E+007, +8.99620713995E+000, -2.17173039889E+001
+5.90736118059E+007, +8.04208915212E+000, -1.92303300021E+001
+5.93237118559E+007, +7.34044797400E+000, -1.66874876648E+001
+5.95738119060E+007, +6.87178105476E+000, -1.41287790771E+001
+5.98239119560E+007, +6.65379363650E+000, -1.15768082463E+001
+6.00740120060E+007, +6.65747682398E+000, -9.07446709836E+000
+6.03241120560E+007, +6.88202542179E+000, -6.63115576041E+000
+6.05742121061E+007, +7.29964955670E+000, -4.28185727976E+000
+6.08243121561E+007, +7.88882829319E+000, -2.03746127727E+000
+6.10744122061E+007, +8.63736290958E+000, +7.39809925202E-002
+6.13245122561E+007, +9.52893700612E+000, +2.06069226636E+000
+6.15746123062E+007, +1.05224001491E+001, +3.89350970819E+000
+6.18247123562E+007, +1.16058854631E+001, +5.59339593307E+000
+6.20748124062E+007, +1.27718280884E+001, +7.14669389722E+000
+6.23249124562E+007, +1.39828350344E+001, +8.56155663113E+000
+6.25750125063E+007, +1.52341215249E+001, +9.83925472561E+000
+6.28251125563E+007, +1.65086652354E+001, +1.09758153473E+001
+6.30752126063E+007, +1.77895825952E+001, +1.20050248582E+001
+6.33253126563E+007, +1.90788716678E+001, +1.29111486527E+001
+6.35754127064E+007, +2.03561424141E+001, +1.36952980789E+001
+6.38255127564E+007, +2.16090680543E+001, +1.43975195365E+001
+6.40756128064E+007, +2.28568916848E+001, +1.50014001383E+001
+6.43257128564E+007, +2.40670823910E+001, +1.55028013449E+001
+6.45758129065E+007, +2.52614392350E+001, +1.59480270787E+001
+6.48259129565E+007, +2.64144733094E+001, +1.63141902103E+001
+6.50760130065E+007, +2.75197938129E+001, +1.66109667026E+001
+6.53261130565E+007, +2.86110422755E+001, +1.68502034730E+001
+6.55762131066E+007, +2.96456699835E+001, +1.70348463780E+001
+6.58263131566E+007, +3.06697986217E+001, +1.71497842911E+001
+6.60764132066E+007, +3.16410909523E+001, +1.72520975731E+001
+6.63265132566E+007, +3.25700208286E+001, +1.73120603738E+001
+6.65766133067E+007, +3.34716739186E+001, +1.73314118880E+001
+6.68267133567E+007, +3.43259503475E+001, +1.73195332343E+001
+6.70768134067E+007, +3.51487803127E+001, +1.72798913313E+001
+6.73269134567E+007, +3.59553539656E+001, +1.72175171025E+001
+6.75770135068E+007, +3.67135415365E+001, +1.71381410512E+001
+6.78271135568E+007, +3.74440652627E+001, +1.70225488473E+001
+6.80772136068E+007, +3.81461695286E+001, +1.69023258938E+001
+6.83273136568E+007, +3.88189015656E+001, +1.67644152521E+001
+6.85774137069E+007, +3.94607938898E+001, +1.66099912159E+001
+6.88275137569E+007, +4.00805240811E+001, +1.64496675791E+001
+6.90776138069E+007, +4.06662895819E+001, +1.62723346604E+001
+6.93277138569E+007, +4.12282919811E+001, +1.60925858844E+001
+6.95778139070E+007, +4.17703598736E+001, +1.59016529185E+001
+6.98279139570E+007, +4.22910065111E+001, +1.57011224320E+001
+7.00780140070E+007, +4.27844832254E+001, +1.54821807293E+001
+7.03281140570E+007, +4.32488692687E+001, +1.52793096108E+001
+7.05782141071E+007, +4.36951572407E+001, +1.50688546477E+001
+7.08283141571E+007, +4.41328593117E+001, +1.48479437946E+001
+7.10784142071E+007, +4.45431117445E+001, +1.46216549565E+001
+7.13285142571E+007, +4.49375998773E+001, +1.44073744973E+001
+7.15786143072E+007, +4.53146317399E+001, +1.41820195941E+001
+7.18287143572E+007, +4.56717851215E+001, +1.39589363591E+001
+7.20788144072E+007, +4.60172218390E+001, +1.37425217700E+001
+7.23289144572E+007, +4.63477077402E+001, +1.35146332948E+001
+7.25790145073E+007, +4.66634915485E+001, +1.32842311970E+001
+7.28291145573E+007, +4.69666944664E+001, +1.30665032701E+001
+7.30792146073E+007, +4.72646541929E+001, +1.28390971243E+001
+7.33293146573E+007, +4.75309633143E+001, +1.26224173275E+001
+7.35794147074E+007, +4.78025066871E+001, +1.23942964658E+001
+7.38295147574E+007, +4.80586820995E+001, +1.21732762904E+001
+7.40796148074E+007, +4.83008356110E+001, +1.19563224503E+001
+7.43297148574E+007, +4.85391898786E+001, +1.17290465575E+001
+7.45798149075E+007, +4.87522090195E+001, +1.15189089576E+001
+7.48299149575E+007, +4.89772999485E+001, +1.13124082661E+001
+7.50800150075E+007, +4.91718463811E+001, +1.10882082705E+001
+7.53301150575E+007, +4.93724397371E+001, +1.08682855016E+001
+7.55802151076E+007, +4.95612870854E+001, +1.06619295841E+001
+7.58303151576E+007, +4.97450188174E+001, +1.04567097263E+001
+7.60804152076E+007, +4.99203602965E+001, +1.02464062650E+001
+7.63305152576E+007, +5.00792087435E+001, +1.00369684392E+001
+7.65806153077E+007, +5.02369630934E+001, +9.83009123659E+000
+7.68307153577E+007, +5.03851418023E+001, +9.62365432696E+000
+7.70808154077E+007, +5.05217566010E+001, +9.42102935485E+000
+7.73309154577E+007, +5.06583924054E+001, +9.21991458456E+000
+7.75810155078E+007, +5.07845395245E+001, +9.02952664124E+000
+7.78311155578E+007, +5.09113647590E+001, +8.83778922099E+000
+7.80812156078E+007, +5.10151448425E+001, +8.63813786432E+000
+7.83313156578E+007, +5.11181967533E+001, +8.45224519299E+000
+7.85814157079E+007, +5.12234997417E+001, +8.26360546249E+000
+7.88315157579E+007, +5.13203361789E+001, +8.07573530269E+000
+7.90816158079E+007, +5.14115132241E+001, +7.89799638092E+000
+7.93317158579E+007, +5.14979842526E+001, +7.70646562544E+000
+7.95818159080E+007, +5.15699657472E+001, +7.54143658861E+000
+7.98319159580E+007, +5.16424693945E+001, +7.35642819260E+000
+8.00820160080E+007, +5.17126825753E+001, +7.18776364964E+000
