"# Channel 1"
"# Trace 1"
Frequency, Formatted Data, Formatted Data
+5.00000000000E+004, +2.16750608515E-002, -3.74395191097E-003
+3.00100050025E+005, +2.17302143618E-004, +3.20768817028E-004
+5.50200100050E+005, +4.54861438411E-004, +1.28604629097E-003
+8.00300150075E+005, +4.62960894656E-004, +1.36300524704E-003
+1.05040020010E+006, +4.00201314220E-004, +1.41581488571E-003
+1.30050025013E+006, +2.06504324172E-004, +2.74094003573E-003
+1.55060030015E+006, +4.20760294845E-004, +3.09786399540E-003
+1.80070035018E+006, +7.84737880585E-005, +3.66770494473E-003
+2.05080040020E+006, +8.95537094376E-004, +4.03766782082E-003
+2.30090045023E+006, +3.22104123572E-004, +4.42685620071E-003
+2.55100050025E+006, +9.62437970544E-004, +5.18580247394E-003
+2.80110055028E+006, +7.37990647518E-004, +5.76622204451E-003
+3.05120060030E+006, +1.04998579188E-003, +6.19643147600E-003
+3.30130065033E+006, +1.05488570073E-003, +6.34973863557E-003
+3.55140070035E+006, +1.38504299142E-003, +6.74127566375E-003
+3.80150075038E+006, +1.26695099169E-003, +7.50553296017E-003
+4.05160080040E+006, +1.54873752248E-003, +8.00688283321E-003
+4.30170085043E+006, +1.94738671650E-003, +8.48633304986E-003
+4.55180090045E+006, +1.92149315205E-003, +9.08775068118E-003
+4.80190095048E+006, +2.34116397469E-003, +9.29148991164E-003
+5.05200100050E+006, +2.53999226047E-003, +9.73920889546E-003
+5.30210105053E+006, +3.04916663845E-003, +9.41669995151E-003
+5.55220110055E+006, +3.19579512819E-003, +1.08886281390E-002
+5.80230115058E+006, +3.53229572047E-003, +1.11610897213E-002
+6.05240120060E+006, +3.55133269426E-003, +1.16727150101E-002
+6.30250125063E+006, +3.49455619773E-003, +1.25543569505E-002
+6.55260130065E+006, +4.04225607404E-003, +1.27264617267E-002
+6.80270135068E+006, +4.25834562330E-003, +1.30243905596E-002
+7.05280140070E+006, +4.25364423613E-003, +1.35772551601E-002
+7.30290145073E+006, +5.29330540292E-003, +1.41629269657E-002
+7.55300150075E+006, +5.22486142010E-003, +1.47912018567E-002
+7.80310155078E+006, +5.69197123593E-003, +1.48621981565E-002
+8.05320160080E+006, +6.09955534132E-003, +1.50141294062E-002
+8.30330165083E+006, +6.38416426142E-003, +1.58196581199E-002
+8.55340170085E+006, +6.81141468192E-003, +1.61256291432E-002
+8.80350175088E+006, +7.19705252359E-003, +1.64826023364E-002
+9.05360180090E+006, +7.51251622302E-003, +1.68597070775E-002
+9.30370185093E+006, +7.92220823898E-003, +1.72031122990E-002
+9.55380190095E+006, +8.35054237345E-003, +1.76148976238E-002
+9.80390195098E+006, +8.81724377354E-003, +1.79252908997E-002
+1.00540020010E+007, +9.34839155975E-003, +1.83399275058E-002
+1.03041020510E+007, +9.78359565794E-003, +1.87260715058E-002
+1.05542021011E+007, +1.01771275456E-002, +1.90680349561E-002
+1.08043021511E+007, +1.06032451969E-002, +1.95597469610E-002
+1.10544022011E+007, +1.11288012166E-002, +1.97387045715E-002
+1.13045022511E+007, +1.16230859886E-002, +2.00703037244E-002
+1.15546023012E+007, +1.21331812903E-002, +2.04242001993E-002
+1.18047023512E+007, +1.27319547962E-002, +2.08393857928E-002
+1.20548024012E+007, +1.31257763569E-002, +2.11059806318E-002
+1.23049024512E+007, +1.36355547955E-002, +2.14345685834E-002
+1.25550025013E+007, +1.42215443181E-002, +2.16814822126E-002
+1.28051025513E+007, +1.49471540371E-002, +2.19990886419E-002
+1.30552026013E+007, +1.54481331304E-002, +2.23738589075E-002
+1.33053026513E+007, +1.60270026790E-002, +2.25789016026E-002
+1.35554027014E+007, +1.65199149317E-002, +2.28416648043E-002
+1.38055027514E+007, +1.71344386403E-002, +2.32322355433E-002
+1.40556028014E+007, +1.77485424448E-002, +2.34246440191E-002
+1.43057028514E+007, +1.83507627855E-002, +2.36428873507E-002
+1.45558029015E+007, +1.90013715497E-002, +2.38968951451E-002
+1.48059029515E+007, +1.97559211441E-002, +2.40888636671E-002
+1.50560030015E+007, +2.02404624876E-002, +2.43138995513E-002
+1.53061030515E+007, +2.09785351239E-002, +2.44102597401E-002
+1.55562031016E+007, +2.17148653918E-002, +2.45920113660E-002
+1.58063031516E+007, +2.22605074172E-002, +2.47743923696E-002
+1.60564032016E+007, +2.29421616772E-002, +2.50595569117E-002
+1.63065032516E+007, +2.35447537903E-002, +2.51555775890E-002
+1.65566033017E+007, +2.44581141691E-002, +2.53510864866E-002
+1.68067033517E+007, +2.51297099734E-002, +2.55450907540E-002
+1.70568034017E+007, +2.57839878997E-002, +2.56280184291E-002
+1.73069034517E+007, +2.65154940500E-002, +2.56661027516E-002
+1.75570035018E+007, +2.73801616260E-002, +2.58494020657E-002
+1.78071035518E+007, +2.79422598283E-002, +2.59421528405E-002
+1.80572036018E+007, +2.88461919604E-002, +2.59861389046E-002
+1.83073036518E+007, +2.95806129002E-002, +2.60948540680E-002
+1.85574037019E+007, +3.03012058880E-002, +2.60318279743E-002
+1.88075037519E+007, +3.11485623130E-002, +2.62348276247E-002
+1.90576038019E+007, +3.19427492488E-002, +2.61516893394E-002
+1.93077038519E+007, +3.26548911140E-002, +2.61365590410E-002
+1.95578039020E+007, +3.35951330511E-002, +2.61937161908E-002
+1.98079039520E+007, +3.42055421508E-002, +2.62568505838E-002
+2.00580040020E+007, +3.51400577309E-002, +2.62001840764E-002
+2.03081040520E+007, +3.59081229690E-002, +2.62025376618E-002
+2.05582041021E+007, +3.68896911978E-002, +2.62207236383E-002
+2.08083041521E+007, +3.76264633563E-002, +2.61200186251E-002
+2.10584042021E+007, +3.85425234950E-002, +2.59831662563E-002
+2.13085042521E+007, +3.93168211211E-002, +2.58364104963E-002
+2.15586043022E+007, +4.02296673924E-002, +2.58070581208E-002
+2.18087043522E+007, +4.10433516480E-002, +2.56227480036E-002
+2.20588044022E+007, +4.18390142868E-002, +2.54941246765E-002
+2.23089044522E+007, +4.27711357245E-002, +2.53757869372E-002
+2.25590045023E+007, +4.36597145598E-002, +2.52413583806E-002
+2.28091045523E+007, +4.45346891683E-002, +2.49532690365E-002
+2.30592046023E+007, +4.54893244628E-002, +2.48785281748E-002
+2.33093046523E+007, +4.63908167612E-002, +2.47166039811E-002
+2.35594047024E+007, +4.73474868086E-002, +2.44695305606E-002
+2.38095047524E+007, +4.83499906422E-002, +2.42284985342E-002
+2.40596048024E+007, +4.91997363567E-002, +2.39013057941E-002
+2.43097048524E+007, +5.01965903350E-002, +2.36626062598E-002
+2.45598049025E+007, +5.11661085696E-002, +2.33950645973E-002
+2.48099049525E+007, +5.20284501037E-002, +2.30314162803E-002
+2.50600050025E+007, +5.30592738116E-002, +2.27251155579E-002
+2.53101050525E+007, +5.39244626359E-002, +2.23702322507E-002
+2.55602051026E+007, +5.49401294355E-002, +2.20943814664E-002
+2.58103051526E+007, +5.59255872688E-002, +2.16666598097E-002
+2.60604052026E+007, +5.69287780982E-002, +2.12529057748E-002
+2.63105052526E+007, +5.79605108007E-002, +2.08656214371E-002
+2.65606053027E+007, +5.88697264654E-002, +2.04200570087E-002
+2.68107053527E+007, +5.98306979704E-002, +2.00161033802E-002
+2.70608054027E+007, +6.08493188644E-002, +1.95948703131E-002
+2.73109054527E+007, +6.19076812197E-002, +1.90345290266E-002
+2.75610055028E+007, +6.28307761513E-002, +1.84846981549E-002
+2.78111055528E+007, +6.38876314415E-002, +1.79883722506E-002
+2.80612056028E+007, +6.50513199313E-002, +1.74752506873E-002
+2.83113056528E+007, +6.59348547044E-002, +1.68448470038E-002
+2.85614057029E+007, +6.69997446138E-002, +1.62228771937E-002
+2.88115057529E+007, +6.80750107842E-002, +1.56755061958E-002
+2.90616058029E+007, +6.90990198039E-002, +1.50983733349E-002
+2.93117058529E+007, +7.01053224579E-002, +1.43860666162E-002
+2.95618059030E+007, +7.12150268229E-002, +1.37041090664E-002
+2.98119059530E+007, +7.22691462018E-002, +1.30134852680E-002
+3.00620060030E+007, +7.32495602449E-002, +1.22169592508E-002
+3.03121060530E+007, +7.44341463676E-002, +1.15242891623E-002
+3.05622061031E+007, +7.54886415030E-002, +1.07606325539E-002
+3.08123061531E+007, +7.65350248738E-002, +1.00173664007E-002
+3.10624062031E+007, +7.74938385489E-002, +9.15669211418E-003
+3.13125062531E+007, +7.86633206630E-002, +8.38198215928E-003
+3.15626063032E+007, +7.97848462729E-002, +7.45113451966E-003
+3.18127063532E+007, +8.07579065753E-002, +6.66327823452E-003
+3.20628064032E+007, +8.18197829519E-002, +5.59095335061E-003
+3.23129064532E+007, +8.29530916939E-002, +4.74867775916E-003
+3.25630065033E+007, +8.41583552229E-002, +3.65652771462E-003
+3.28131065533E+007, +8.51018654969E-002, +2.71507564789E-003
+3.30632066033E+007, +8.61716526024E-002, +1.73017426538E-003
+3.33133066533E+007, +8.74137082162E-002, +6.17560148587E-004
+3.35634067034E+007, +8.84405930703E-002, -4.71833138188E-004
+3.38135067534E+007, +8.95525709253E-002, -1.55123559272E-003
+3.40636068034E+007, +9.06935170243E-002, -2.62259796610E-003
+3.43137068534E+007, +9.18005777622E-002, -3.90508226137E-003
+3.45638069035E+007, +9.28906237091E-002, -5.02883240053E-003
+3.48139069535E+007, +9.39963697267E-002, -6.26297643783E-003
+3.50640070035E+007, +9.50751428800E-002, -7.52265611497E-003
+3.53141070535E+007, +9.62616237391E-002, -8.87796877729E-003
+3.55642071036E+007, +9.72716866575E-002, -1.02150712323E-002
+3.58143071536E+007, +9.84627153193E-002, -1.14942344013E-002
+3.60644072036E+007, +9.96353479771E-002, -1.29143860498E-002
+3.63145072536E+007, +1.00789652562E-001, -1.43580168197E-002
+3.65646073037E+007, +1.01791453916E-001, -1.59056587205E-002
+3.68147073537E+007, +1.03027949206E-001, -1.74215017145E-002
+3.70648074037E+007, +1.04130311280E-001, -1.88411717848E-002
+3.73149074537E+007, +1.05229676418E-001, -2.05315246964E-002
+3.75650075038E+007, +1.06376512655E-001, -2.20813305758E-002
+3.78151075538E+007, +1.07463328040E-001, -2.38409058166E-002
+3.80652076038E+007, +1.08628380002E-001, -2.55721634506E-002
+3.83153076538E+007, +1.09841250882E-001, -2.73085167384E-002
+3.85654077039E+007, +1.10877223787E-001, -2.91414480131E-002
+3.88155077539E+007, +1.12033484071E-001, -3.09203514377E-002
+3.90656078039E+007, +1.13184665953E-001, -3.27339522130E-002
+3.93157078539E+007, +1.14228813966E-001, -3.47651670545E-002
+3.95658079040E+007, +1.15391512273E-001, -3.67803372995E-002
+3.98159079540E+007, +1.16493879383E-001, -3.88212749440E-002
+4.00660080040E+007, +1.17698584241E-001, -4.08582606687E-002
+4.03161080540E+007, +1.18763765650E-001, -4.29135504952E-002
+4.05662081041E+007, +1.19938543965E-001, -4.52300898628E-002
+4.08163081541E+007, +1.20978499855E-001, -4.75080257969E-002
+4.10664082041E+007, +1.22176643119E-001, -4.97753164767E-002
+4.13165082541E+007, +1.23314532678E-001, -5.21690547447E-002
+4.15666083042E+007, +1.24457851845E-001, -5.46572809728E-002
+4.18167083542E+007, +1.25474045999E-001, -5.72128627410E-002
+4.20668084042E+007, +1.26641204957E-001, -5.97540004156E-002
+4.23169084542E+007, +1.27746921098E-001, -6.23831886954E-002
+4.25670085043E+007, +1.28724164379E-001, -6.51235698775E-002
+4.28171085543E+007, +1.29856172640E-001, -6.79656126289E-002
+4.30672086043E+007, +1.30976013960E-001, -7.08163915910E-002
+4.33173086543E+007, +1.32042548901E-001, -7.38168155773E-002
+4.35674087044E+007, +1.33189480021E-001, -7.68254069257E-002
+4.38175087544E+007, +1.34209548471E-001, -8.00421272018E-002
+4.40676088044E+007, +1.35192841098E-001, -8.33055264164E-002
+4.43177088544E+007, +1.36297081659E-001, -8.65343265165E-002
+4.45678089045E+007, +1.37313683024E-001, -8.99747840502E-002
+4.48179089545E+007, +1.38365413449E-001, -9.34424691008E-002
+4.50680090045E+007, +1.39372753529E-001, -9.72573086647E-002
+4.53181090545E+007, +1.40230862498E-001, -1.00858986916E-001
+4.55682091046E+007, +1.41482654742E-001, -1.04821278748E-001
+4.58183091546E+007, +1.42280241739E-001, -1.08816712681E-001
+4.60684092046E+007, +1.43246970838E-001, -1.12978373176E-001
+4.63185092546E+007, +1.44151147967E-001, -1.17173493804E-001
+4.65686093047E+007, +1.45076414841E-001, -1.21648792642E-001
+4.68187093547E+007, +1.45869637349E-001, -1.26230711624E-001
+4.70688094047E+007, +1.46786559975E-001, -1.31097281318E-001
+4.73189094547E+007, +1.47578018276E-001, -1.35949254470E-001
+4.75690095048E+007, +1.48346140746E-001, -1.41181856770E-001
+4.78191095548E+007, +1.49041358850E-001, -1.46387552400E-001
+4.80692096048E+007, +1.49706754873E-001, -1.51815798517E-001
+4.83193096548E+007, +1.50390230833E-001, -1.57582193816E-001
+4.85694097049E+007, +1.50889627758E-001, -1.63445851553E-001
+4.88195097549E+007, +1.51332627609E-001, -1.69775402212E-001
+4.90696098049E+007, +1.51753230102E-001, -1.76272484714E-001
+4.93197098549E+007, +1.52000233797E-001, -1.82972559421E-001
+4.95698099050E+007, +1.52260834395E-001, -1.89974857606E-001
+4.98199099550E+007, +1.52364701909E-001, -1.97281069373E-001
+5.00700100050E+007, +1.52363715870E-001, -2.04958923639E-001
+5.03201100550E+007, +1.52188879978E-001, -2.12949145989E-001
+5.05702101051E+007, +1.51881926441E-001, -2.21311542249E-001
+5.08203101551E+007, +1.51311730786E-001, -2.30300554992E-001
+5.10704102051E+007, +1.50715784235E-001, -2.39438814136E-001
+5.13205102551E+007, +1.49655573147E-001, -2.49101002866E-001
+5.15706103052E+007, +1.48508209246E-001, -2.59263631372E-001
+5.18207103552E+007, +1.46988408388E-001, -2.69985302279E-001
+5.20708104052E+007, +1.45072432976E-001, -2.81230016111E-001
+5.23209104552E+007, +1.42828066661E-001, -2.93101025732E-001
+5.25710105053E+007, +1.40024017526E-001, -3.05669073144E-001
+5.28211105553E+007, +1.36816702689E-001, -3.18924959278E-001
+5.30712106053E+007, +1.32760416934E-001, -3.32829657052E-001
+5.33213106553E+007, +1.28111651900E-001, -3.47642451316E-001
+5.35714107054E+007, +1.22578476149E-001, -3.63307190066E-001
+5.38215107554E+007, +1.16096943198E-001, -3.79810576956E-001
+5.40716108054E+007, +1.08578476440E-001, -3.97168741709E-001
+5.43217108554E+007, +9.95526175768E-002, -4.15673159277E-001
+5.45718109055E+007, +8.89844929445E-002, -4.35133641126E-001
+5.48219109555E+007, +7.67639080768E-002, -4.55428706545E-001
+5.50720110055E+007, +6.22377265228E-002, -4.76936600332E-001
+5.53221110555E+007, +4.51923460888E-002, -4.99154487974E-001
+5.55722111056E+007, +2.52632743053E-002, -5.22204600666E-001
+5.58223111556E+007, +2.06146207759E-003, -5.45813356065E-001
+5.60724112056E+007, -2.54003536346E-002, -5.69970291029E-001
+5.63225112556E+007, -5.72784504381E-002, -5.93671344099E-001
+5.65726113057E+007, -9.41230274483E-002, -6.16778935788E-001
+5.68227113557E+007, -1.37148475435E-001, -6.37941525907E-001
+5.70728114057E+007, -1.86214233379E-001, -6.56690215616E-001
+5.73229114557E+007, -2.41986425847E-001, -6.70396449086E-001
+5.75730115058E+007, -3.03785388915E-001, -6.77894707516E-001
+5.78231115558E+007, -3.71734393151E-001, -6.77212668759E-001
+5.80732116058E+007, -4.44453842854E-001, -6.65086882755E-001
+5.83233116558E+007, -5.19171940715E-001, -6.40735953370E-001
+5.85734117059E+007, -5.93189580150E-001, -6.01605334797E-001
+5.88235117559E+007, -6.61875104023E-001, -5.47794126266E-001
+5.90736118059E+007, -7.21082592534E-001, -4.80213533304E-001
+5.93237118559E+007, -7.67374737200E-001, -4.01920362374E-001
+5.95738119060E+007, -7.97983196238E-001, -3.16720781394E-001
+5.98239119560E+007, -8.11951973388E-001, -2.29181450523E-001
+6.00740120060E+007, -8.09970472411E-001, -1.43954568723E-001
+6.03241120560E+007, -7.94143899372E-001, -6.42145719361E-002
+6.05742121061E+007, -7.67124663682E-001, +6.65699756542E-003
+6.08243121561E+007, -7.32832932485E-001, +6.82693362154E-002
+6.10744122061E+007, -6.92927761634E-001, +1.19822950073E-001
+6.13245122561E+007, -6.50915761366E-001, +1.62124789754E-001
+6.15746123062E+007, -6.08011201704E-001, +1.95642605821E-001
+6.18247123562E+007, -5.65763857623E-001, +2.21594630280E-001
+6.20748124062E+007, -5.24943577828E-001, +2.41660336130E-001
+6.23249124562E+007, -4.86405407777E-001, +2.56296152113E-001
+6.25750125063E+007, -4.50138641882E-001, +2.66618893628E-001
+6.28251125563E+007, -4.16775518770E-001, +2.73710475743E-001
+6.30752126063E+007, -3.85516304555E-001, +2.78033318757E-001
+6.33253126563E+007, -3.56545399187E-001, +2.79783327772E-001
+6.35754127064E+007, -3.29878868397E-001, +2.79969963750E-001
+6.38255127564E+007, -3.05836081952E-001, +2.78952407670E-001
+6.40756128064E+007, -2.83483150679E-001, +2.76706130717E-001
+6.43257128564E+007, -2.62568236772E-001, +2.73794408988E-001
+6.45758129065E+007, -2.43823666586E-001, +2.70048324847E-001
+6.48259129565E+007, -2.26432365906E-001, +2.66100380741E-001
+6.50760130065E+007, -2.10277378640E-001, +2.61727493359E-001
+6.53261130565E+007, -1.95452103357E-001, +2.57342642587E-001
+6.55762131066E+007, -1.81582709475E-001, +2.52352370371E-001
+6.58263131566E+007, -1.68854419764E-001, +2.47490901301E-001
+6.60764132066E+007, -1.57159231876E-001, +2.42381971078E-001
+6.63265132566E+007, -1.46208553159E-001, +2.37517523588E-001
+6.65766133067E+007, -1.35891627966E-001, +2.32480193820E-001
+6.68267133567E+007, -1.26606631606E-001, +2.27518997216E-001
+6.70768134067E+007, -1.17733467472E-001, +2.22569883430E-001
+6.73269134567E+007, -1.09464451725E-001, +2.17696929875E-001
+6.75770135068E+007, -1.01737760513E-001, +2.12949206132E-001
+6.78271135568E+007, -9.44643253914E-002, +2.08254856660E-001
+6.80772136068E+007, -8.76283875287E-002, +2.03699722565E-001
+6.83273136568E+007, -8.13416057259E-002, +1.99067921220E-001
+6.85774137069E+007, -7.54747509655E-002, +1.94732293311E-001
+6.88275137569E+007, -6.98556990572E-002, +1.90416471538E-001
+6.90776138069E+007, -6.45452411193E-002, +1.86108099025E-001
+6.93277138569E+007, -5.95771323294E-002, +1.81986294546E-001
+6.95778139070E+007, -5.49551690461E-002, +1.77928309380E-001
+6.98279139570E+007, -5.04631576937E-002, +1.73941984676E-001
+7.00780140070E+007, -4.62575643530E-002, +1.69994460065E-001
+7.03281140570E+007, -4.24021455265E-002, +1.66217261160E-001
+7.05782141071E+007, -3.87312888056E-002, +1.62536766826E-001
+7.08283141571E+007, -3.52661410804E-002, +1.58983359516E-001
+7.10784142071E+007, -3.19001680986E-002, +1.55462751680E-001
+7.13285142571E+007, -2.87428386220E-002, +1.51983625631E-001
+7.15786143072E+007, -2.57557045600E-002, +1.48691890214E-001
+7.18287143572E+007, -2.29086062306E-002, +1.45383542112E-001
+7.20788144072E+007, -2.02794437474E-002, +1.42238398534E-001
+7.23289144572E+007, -1.76045000400E-002, +1.39072471152E-001
+7.25790145073E+007, -1.52859937350E-002, +1.36010341754E-001
+7.28291145573E+007, -1.28625613524E-002, +1.33042458257E-001
+7.30792146073E+007, -1.07011667537E-002, +1.30008849865E-001
+7.33293146573E+007, -8.60051772691E-003, +1.27252568383E-001
+7.35794147074E+007, -6.59253508999E-003, +1.24334894472E-001
+7.38295147574E+007, -4.75341644188E-003, +1.21649941200E-001
+7.40796148074E+007, -2.96263558344E-003, +1.18918649670E-001
+7.43297148574E+007, -1.23983569010E-003, +1.16246489418E-001
+7.45798149075E+007, +4.09165628941E-004, +1.13616245807E-001
+7.48299149575E+007, +1.94306577287E-003, +1.11052026270E-001
+7.50800150075E+007, +3.34602076669E-003, +1.08666926043E-001
+7.53301150575E+007, +4.76292175271E-003, +1.06150812655E-001
+7.55802151076E+007, +6.10884715137E-003, +1.03788837906E-001
+7.58303151576E+007, +7.29984851312E-003, +1.01374676754E-001
+7.60804152076E+007, +8.46840646038E-003, +9.90902404416E-002
+7.63305152576E+007, +9.57426932873E-003, +9.68623867290E-002
+7.65806153077E+007, +1.06107085815E-002, +9.47446294383E-002
+7.68307153577E+007, +1.16928925528E-002, +9.24040246196E-002
+7.70808154077E+007, +1.26281224291E-002, +9.02625755386E-002
+7.73309154577E+007, +1.34449787738E-002, +8.81998217367E-002
+7.75810155078E+007, +1.42899072000E-002, +8.61247002765E-002
+7.78311155578E+007, +1.50678411319E-002, +8.40645540176E-002
+7.80812156078E+007, +1.57379812576E-002, +8.20906273023E-002
+7.83313156578E+007, +1.64628453312E-002, +8.01631136609E-002
+7.85814157079E+007, +1.71968716666E-002, +7.83283336754E-002
+7.88315157579E+007, +1.77041417544E-002, +7.65230242713E-002
+7.90816158079E+007, +1.83531576282E-002, +7.45714352839E-002
+7.93317158579E+007, +1.88643900654E-002, +7.28765843665E-002
+7.95818159080E+007, +1.93153368453E-002, +7.10427919681E-002
+7.98319159580E+007, +1.97941553859E-002, +6.93657944283E-002
+8.00820160080E+007, +2.02042804588E-002, +6.76315402077E-002
