"# Channel 1"
"# Trace 1"
Frequency, Formatted Data, Formatted Data
+5.00000000000E+004, +2.03211237119E-002, -3.67466987159E-003
+3.00100050025E+005, +1.34909664882E-004, +9.28678270861E-004
+5.50200100050E+005, +8.56274727459E-005, +1.24177533634E-003
+8.00300150075E+005, +5.92358203708E-004, +1.98645596763E-003
+1.05040020010E+006, +2.36243845415E-004, +2.11719854841E-003
+1.30050025013E+006, +5.12294498483E-004, +2.85311904856E-003
+1.55060030015E+006, +4.87220128896E-004, +3.00402645672E-003
+1.80070035018E+006, +4.25175602628E-004, +3.38241027535E-003
+2.05080040020E+006, +6.13103730450E-004, +4.13399354746E-003
+2.30090045023E+006, +7.08432319082E-004, +4.32231179662E-003
+2.55100050025E+006, +7.92929731432E-004, +5.42600104148E-003
+2.80110055028E+006, +1.13592759051E-003, +5.63143902020E-003
+3.05120060030E+006, +8.87060462318E-004, +6.03606908271E-003
+3.30130065033E+006, +1.52668384997E-003, +6.58698323551E-003
+3.55140070035E+006, +1.39955911019E-003, +6.85184823445E-003
+3.80150075038E+006, +1.52244050997E-003, +7.29631514443E-003
+4.05160080040E+006, +1.53314745739E-003, +7.85232552237E-003
+4.30170085043E+006, +1.78722276501E-003, +8.29053830518E-003
+4.55180090045E+006, +1.77452452951E-003, +8.84134734807E-003
+4.80190095048E+006, +2.28532828736E-003, +9.20779990492E-003
+5.05200100050E+006, +2.28351832689E-003, +9.66148915845E-003
+5.30210105053E+006, +2.90761136238E-003, +1.03857123449E-002
+5.55220110055E+006, +2.91748282557E-003, +1.09387993191E-002
+5.80230115058E+006, +3.21096131111E-003, +1.16635079646E-002
+6.05240120060E+006, +3.36341027224E-003, +1.13661535028E-002
+6.30250125063E+006, +3.78772065387E-003, +1.18798797203E-002
+6.55260130065E+006, +4.36123347531E-003, +1.27837917781E-002
+6.80270135068E+006, +4.39852366559E-003, +1.30375619132E-002
+7.05280140070E+006, +4.62805874604E-003, +1.33865033365E-002
+7.30290145073E+006, +5.31113354223E-003, +1.40560406662E-002
+7.55300150075E+006, +5.44969521269E-003, +1.44423794108E-002
+7.80310155078E+006, +5.20408888929E-003, +1.47081592259E-002
+8.05320160080E+006, +5.96619665442E-003, +1.51201609482E-002
+8.30330165083E+006, +6.38154900149E-003, +1.56101229092E-002
+8.55340170085E+006, +6.69074340442E-003, +1.59149785795E-002
+8.80350175088E+006, +7.03262253384E-003, +1.64584161976E-002
+9.05360180090E+006, +7.44072492146E-003, +1.67012172004E-002
+9.30370185093E+006, +7.85053957056E-003, +1.71691081612E-002
+9.55380190095E+006, +8.28276119038E-003, +1.75078986777E-002
+9.80390195098E+006, +8.70556373348E-003, +1.78607392773E-002
+1.00540020010E+007, +9.12829939918E-003, +1.83347777484E-002
+1.03041020510E+007, +9.63370040523E-003, +1.86349941178E-002
+1.05542021011E+007, +1.00747692193E-002, +1.90741639204E-002
+1.08043021511E+007, +1.05926904582E-002, +1.92838835229E-002
+1.10544022011E+007, +1.09679243415E-002, +1.97227453195E-002
+1.13045022511E+007, +1.15949326962E-002, +2.00333324730E-002
+1.15546023012E+007, +1.19793809730E-002, +2.03768453997E-002
+1.18047023512E+007, +1.25101061189E-002, +2.06938782313E-002
+1.20548024012E+007, +1.29941166322E-002, +2.09670277751E-002
+1.23049024512E+007, +1.36609647281E-002, +2.13061649480E-002
+1.25550025013E+007, +1.41360622897E-002, +2.16299909691E-002
+1.28051025513E+007, +1.46588098375E-002, +2.18937988501E-002
+1.30552026013E+007, +1.52603619317E-002, +2.21854553112E-002
+1.33053026513E+007, +1.58046768454E-002, +2.25769271356E-002
+1.35554027014E+007, +1.64249225964E-002, +2.26456675349E-002
+1.38055027514E+007, +1.70537018703E-002, +2.29895539514E-002
+1.40556028014E+007, +1.76274472799E-002, +2.32922385012E-002
+1.43057028514E+007, +1.82452619743E-002, +2.34844033411E-002
+1.45558029015E+007, +1.87798837891E-002, +2.36680826974E-002
+1.48059029515E+007, +1.95325250899E-002, +2.39279137512E-002
+1.50560030015E+007, +2.01766546366E-002, +2.41362385420E-002
+1.53061030515E+007, +2.07692829173E-002, +2.43119293161E-002
+1.55562031016E+007, +2.12970898794E-002, +2.45598278185E-002
+1.58063031516E+007, +2.21823680439E-002, +2.47596683826E-002
+1.60564032016E+007, +2.27819078296E-002, +2.48131009539E-002
+1.63065032516E+007, +2.34828480889E-002, +2.50609454615E-002
+1.65566033017E+007, +2.41316888218E-002, +2.52179354093E-002
+1.68067033517E+007, +2.48509030836E-002, +2.53614357393E-002
+1.70568034017E+007, +2.56674308642E-002, +2.55241660136E-002
+1.73069034517E+007, +2.62415387091E-002, +2.55757799035E-002
+1.75570035018E+007, +2.71822352448E-002, +2.56206231823E-002
+1.78071035518E+007, +2.77912793200E-002, +2.57521120560E-002
+1.80572036018E+007, +2.87121334729E-002, +2.59491657624E-002
+1.83073036518E+007, +2.92066186327E-002, +2.59054978123E-002
+1.85574037019E+007, +3.00482677318E-002, +2.58888867463E-002
+1.88075037519E+007, +3.08866354097E-002, +2.60356301669E-002
+1.90576038019E+007, +3.16503142405E-002, +2.60816511376E-002
+1.93077038519E+007, +3.24033160356E-002, +2.60278452832E-002
+1.95578039020E+007, +3.32475721041E-002, +2.61282507239E-002
+1.98079039520E+007, +3.39152437320E-002, +2.61177739866E-002
+2.00580040020E+007, +3.48300549662E-002, +2.60677117258E-002
+2.03081040520E+007, +3.57491362214E-002, +2.60294765623E-002
+2.05582041021E+007, +3.63945740451E-002, +2.59295359453E-002
+2.08083041521E+007, +3.72830950320E-002, +2.59391723563E-002
+2.10584042021E+007, +3.81429872458E-002, +2.58888809180E-002
+2.13085042521E+007, +3.91077133005E-002, +2.58138169316E-002
+2.15586043022E+007, +3.98851613085E-002, +2.56262337988E-002
+2.18087043522E+007, +4.07970659945E-002, +2.55172670850E-002
+2.20588044022E+007, +4.15969074337E-002, +2.53680488704E-002
+2.23089044522E+007, +4.25407726574E-002, +2.52969128663E-002
+2.25590045023E+007, +4.33889533349E-002, +2.52133471702E-002
+2.28091045523E+007, +4.43011707467E-002, +2.49055193551E-002
+2.30592046023E+007, +4.51527355414E-002, +2.47854263606E-002
+2.33093046523E+007, +4.61350536841E-002, +2.45837762159E-002
+2.35594047024E+007, +4.70174285415E-002, +2.42425698295E-002
+2.38095047524E+007, +4.80159759412E-002, +2.41384879222E-002
+2.40596048024E+007, +4.88616877435E-002, +2.38165449855E-002
+2.43097048524E+007, +4.97793775683E-002, +2.35868427184E-002
+2.45598049025E+007, +5.06927683144E-002, +2.33044770424E-002
+2.48099049525E+007, +5.17732248252E-002, +2.30233141583E-002
+2.50600050025E+007, +5.25864833883E-002, +2.26997005377E-002
+2.53101050525E+007, +5.35441592695E-002, +2.23352366090E-002
+2.55602051026E+007, +5.45202127022E-002, +2.20118874170E-002
+2.58103051526E+007, +5.55825892156E-002, +2.15694813754E-002
+2.60604052026E+007, +5.66428500035E-002, +2.12283237375E-002
+2.63105052526E+007, +5.74733408036E-002, +2.08069583987E-002
+2.65606053027E+007, +5.84071107047E-002, +2.03651065099E-002
+2.68107053527E+007, +5.94846274078E-002, +1.99508741910E-002
+2.70608054027E+007, +6.04788893221E-002, +1.94493866946E-002
+2.73109054527E+007, +6.14025548290E-002, +1.89912323565E-002
+2.75610055028E+007, +6.25434498080E-002, +1.85021529616E-002
+2.78111055528E+007, +6.33893698931E-002, +1.79609370438E-002
+2.80612056028E+007, +6.44799084223E-002, +1.73424574452E-002
+2.83113056528E+007, +6.55574280251E-002, +1.67518259880E-002
+2.85614057029E+007, +6.65590348931E-002, +1.62233495524E-002
+2.88115057529E+007, +6.76050025929E-002, +1.55569546661E-002
+2.90616058029E+007, +6.86130569419E-002, +1.49776987729E-002
+2.93117058529E+007, +6.96300963220E-002, +1.44043909113E-002
+2.95618059030E+007, +7.06951424697E-002, +1.36978107843E-002
+2.98119059530E+007, +7.17264773095E-002, +1.29800129502E-002
+3.00620060030E+007, +7.27434576448E-002, +1.22702950378E-002
+3.03121060530E+007, +7.37796635121E-002, +1.15142714096E-002
+3.05622061031E+007, +7.49162716480E-002, +1.06944326086E-002
+3.08123061531E+007, +7.60038391077E-002, +9.96955139238E-003
+3.10624062031E+007, +7.70017643354E-002, +9.19390039703E-003
+3.13125062531E+007, +7.81290253819E-002, +8.29929819640E-003
+3.15626063032E+007, +7.90862703352E-002, +7.42777332763E-003
+3.18127063532E+007, +8.01764168891E-002, +6.46556060130E-003
+3.20628064032E+007, +8.12484837135E-002, +5.62814602079E-003
+3.23129064532E+007, +8.24660077919E-002, +4.74479024593E-003
+3.25630065033E+007, +8.34469809912E-002, +3.64027687948E-003
+3.28131065533E+007, +8.45327411496E-002, +2.81520276431E-003
+3.30632066033E+007, +8.56420634252E-002, +1.74732205647E-003
+3.33133066533E+007, +8.66811622534E-002, +7.93149888524E-004
+3.35634067034E+007, +8.78948949236E-002, -3.37232239748E-004
+3.38135067534E+007, +8.88841796729E-002, -1.55473499634E-003
+3.40636068034E+007, +9.01400340780E-002, -2.62455809824E-003
+3.43137068534E+007, +9.11777750588E-002, -3.73905976863E-003
+3.45638069035E+007, +9.22439522878E-002, -4.95259319540E-003
+3.48139069535E+007, +9.33183117996E-002, -6.05626771691E-003
+3.50640070035E+007, +9.44358831503E-002, -7.37259992461E-003
+3.53141070535E+007, +9.55478284005E-002, -8.69831935748E-003
+3.55642071036E+007, +9.66303715535E-002, -1.00015275910E-002
+3.58143071536E+007, +9.77654526072E-002, -1.13602014394E-002
+3.60644072036E+007, +9.89620716280E-002, -1.28116029899E-002
+3.63145072536E+007, +1.00077472686E-001, -1.41599178331E-002
+3.65646073037E+007, +1.01133248154E-001, -1.56620117570E-002
+3.68147073537E+007, +1.02137155828E-001, -1.70959367145E-002
+3.70648074037E+007, +1.03401571953E-001, -1.86907675627E-002
+3.73149074537E+007, +1.04401406680E-001, -2.02674504572E-002
+3.75650075038E+007, +1.05627575254E-001, -2.18937773577E-002
+3.78151075538E+007, +1.06747241658E-001, -2.35729973105E-002
+3.80652076038E+007, +1.07904346930E-001, -2.52849494461E-002
+3.83153076538E+007, +1.09052922760E-001, -2.69485532917E-002
+3.85654077039E+007, +1.10132566829E-001, -2.88169463932E-002
+3.88155077539E+007, +1.11231961284E-001, -3.04899646592E-002
+3.90656078039E+007, +1.12341659504E-001, -3.24944779138E-002
+3.93157078539E+007, +1.13438955970E-001, -3.43941547823E-002
+3.95658079040E+007, +1.14593704507E-001, -3.63979255044E-002
+3.98159079540E+007, +1.15754702282E-001, -3.84620723634E-002
+4.00660080040E+007, +1.16884223156E-001, -4.05066609835E-002
+4.03161080540E+007, +1.17952914104E-001, -4.25904636931E-002
+4.05662081041E+007, +1.19069893246E-001, -4.47562877636E-002
+4.08163081541E+007, +1.20193816066E-001, -4.70786078490E-002
+4.10664082041E+007, +1.21358340833E-001, -4.93078169092E-002
+4.13165082541E+007, +1.22310851093E-001, -5.17593300036E-002
+4.15666083042E+007, +1.23525361104E-001, -5.40065322749E-002
+4.18167083542E+007, +1.24635368143E-001, -5.65974786563E-002
+4.20668084042E+007, +1.25715537257E-001, -5.91827862948E-002
+4.23169084542E+007, +1.26901163956E-001, -6.18058266764E-002
+4.25670085043E+007, +1.27919599688E-001, -6.45732203871E-002
+4.28171085543E+007, +1.29071665610E-001, -6.73293665515E-002
+4.30672086043E+007, +1.30041218683E-001, -7.02294271736E-002
+4.33173086543E+007, +1.31139423549E-001, -7.31023198137E-002
+4.35674087044E+007, +1.32219084028E-001, -7.62452461114E-002
+4.38175087544E+007, +1.33321983478E-001, -7.91446956937E-002
+4.40676088044E+007, +1.34371718537E-001, -8.24615551925E-002
+4.43177088544E+007, +1.35391720217E-001, -8.57893840469E-002
+4.45678089045E+007, +1.36498190975E-001, -8.91603726973E-002
+4.48179089545E+007, +1.37509468332E-001, -9.27110031700E-002
+4.50680090045E+007, +1.38513185962E-001, -9.63365772478E-002
+4.53181090545E+007, +1.39497006510E-001, -1.00166552602E-001
+4.55682091046E+007, +1.40457656347E-001, -1.03957958397E-001
+4.58183091546E+007, +1.41406072640E-001, -1.07854180884E-001
+4.60684092046E+007, +1.42453669728E-001, -1.11983130748E-001
+4.63185092546E+007, +1.43285565589E-001, -1.16377534643E-001
+4.65686093047E+007, +1.44127071680E-001, -1.20634566366E-001
+4.68187093547E+007, +1.45064398443E-001, -1.25236756500E-001
+4.70688094047E+007, +1.45929745406E-001, -1.29950880343E-001
+4.73189094547E+007, +1.46778462424E-001, -1.34940655274E-001
+4.75690095048E+007, +1.47543739422E-001, -1.39988770783E-001
+4.78191095548E+007, +1.48157203531E-001, -1.45141366118E-001
+4.80692096048E+007, +1.48876598350E-001, -1.50615653743E-001
+4.83193096548E+007, +1.49542713280E-001, -1.56434641367E-001
+4.85694097049E+007, +1.50124914200E-001, -1.62304727699E-001
+4.88195097549E+007, +1.50539285039E-001, -1.68570042512E-001
+4.90696098049E+007, +1.50942929034E-001, -1.74847650584E-001
+4.93197098549E+007, +1.51366977328E-001, -1.81631263830E-001
+4.95698099050E+007, +1.51606228570E-001, -1.88717744874E-001
+4.98199099550E+007, +1.51664914206E-001, -1.95896242593E-001
+5.00700100050E+007, +1.51662354571E-001, -2.03473779841E-001
+5.03201100550E+007, +1.51526416992E-001, -2.11513683491E-001
+5.05702101051E+007, +1.51279096974E-001, -2.19854638557E-001
+5.08203101551E+007, +1.50789934397E-001, -2.28695384041E-001
+5.10704102051E+007, +1.50149078462E-001, -2.37726606471E-001
+5.13205102551E+007, +1.49151944157E-001, -2.47525254058E-001
+5.15706103052E+007, +1.48032914540E-001, -2.57712968076E-001
+5.18207103552E+007, +1.46518746462E-001, -2.68329569416E-001
+5.20708104052E+007, +1.44733509514E-001, -2.79657451715E-001
+5.23209104552E+007, +1.42410112863E-001, -2.91437552002E-001
+5.25710105053E+007, +1.39885789243E-001, -3.04109104354E-001
+5.28211105553E+007, +1.36444881062E-001, -3.17346643947E-001
+5.30712106053E+007, +1.32600041000E-001, -3.31277710196E-001
+5.33213106553E+007, +1.28090090707E-001, -3.46116199981E-001
+5.35714107054E+007, +1.22529074704E-001, -3.61725138119E-001
+5.38215107554E+007, +1.16073256856E-001, -3.78243624097E-001
+5.40716108054E+007, +1.08572769356E-001, -3.95788447495E-001
+5.43217108554E+007, +9.96863789825E-002, -4.14334520022E-001
+5.45718109055E+007, +8.90115509757E-002, -4.33807670482E-001
+5.48219109555E+007, +7.67206370518E-002, -4.54265490208E-001
+5.50720110055E+007, +6.20082806234E-002, -4.75661308470E-001
+5.53221110555E+007, +4.50593347781E-002, -4.98274476562E-001
+5.55722111056E+007, +2.49543195916E-002, -5.21653107786E-001
+5.58223111556E+007, +1.44126812737E-003, -5.45467711009E-001
+5.60724112056E+007, -2.60500454332E-002, -5.69742061934E-001
+5.63225112556E+007, -5.83868246690E-002, -5.93874829370E-001
+5.65726113057E+007, -9.57650248912E-002, -6.17028652606E-001
+5.68227113557E+007, -1.39372849588E-001, -6.38513458649E-001
+5.70728114057E+007, -1.89102256846E-001, -6.57068526958E-001
+5.73229114557E+007, -2.45978779337E-001, -6.70515407126E-001
+5.75730115058E+007, -3.09075654281E-001, -6.77397166639E-001
+5.78231115558E+007, -3.78234969539E-001, -6.75776509423E-001
+5.80732116058E+007, -4.52151969809E-001, -6.62558557993E-001
+5.83233116558E+007, -5.27339653075E-001, -6.36033336421E-001
+5.85734117059E+007, -6.01622207641E-001, -5.94739431860E-001
+5.88235117559E+007, -6.69522772094E-001, -5.38299650125E-001
+5.90736118059E+007, -7.27562179379E-001, -4.68641601586E-001
+5.93237118559E+007, -7.72019303918E-001, -3.88047429486E-001
+5.95738119060E+007, -8.00023675004E-001, -3.01194426868E-001
+5.98239119560E+007, -8.10876946974E-001, -2.13410339387E-001
+6.00740120060E+007, -8.05805155766E-001, -1.28117201791E-001
+6.03241120560E+007, -7.87632112267E-001, -4.98800636399E-002
+6.05742121061E+007, -7.58571633948E-001, +1.99248612399E-002
+6.08243121561E+007, -7.22341131316E-001, +7.95027594149E-002
+6.10744122061E+007, -6.81625890959E-001, +1.29331089410E-001
+6.13245122561E+007, -6.38639809437E-001, +1.69565378786E-001
+6.15746123062E+007, -5.95489809717E-001, +2.01527857122E-001
+6.18247123562E+007, -5.53059328791E-001, +2.26193061733E-001
+6.20748124062E+007, -5.12756682440E-001, +2.44393560621E-001
+6.23249124562E+007, -4.74645977127E-001, +2.58088469133E-001
+6.25750125063E+007, -4.39023022382E-001, +2.67320852021E-001
+6.28251125563E+007, -4.05804179874E-001, +2.73349942266E-001
+6.30752126063E+007, -3.75190633651E-001, +2.76986606992E-001
+6.33253126563E+007, -3.47252088534E-001, +2.78017413869E-001
+6.35754127064E+007, -3.21064302308E-001, +2.77765983474E-001
+6.38255127564E+007, -2.97300230422E-001, +2.76271360212E-001
+6.40756128064E+007, -2.75466718813E-001, +2.73843937923E-001
+6.43257128564E+007, -2.55422479979E-001, +2.70836955520E-001
+6.45758129065E+007, -2.36842519055E-001, +2.66753553600E-001
+6.48259129565E+007, -2.19955822586E-001, +2.62605072811E-001
+6.50760130065E+007, -2.04379987256E-001, +2.58218766355E-001
+6.53261130565E+007, -1.89850920085E-001, +2.53299195898E-001
+6.55762131066E+007, -1.76450293030E-001, +2.48667967710E-001
+6.58263131566E+007, -1.63888510859E-001, +2.43559890105E-001
+6.60764132066E+007, -1.52551752496E-001, +2.38582317570E-001
+6.63265132566E+007, -1.41794875085E-001, +2.33561983183E-001
+6.65766133067E+007, -1.31796148291E-001, +2.28524058372E-001
+6.68267133567E+007, -1.22595176557E-001, +2.23567650044E-001
+6.70768134067E+007, -1.14136848961E-001, +2.18721993244E-001
+6.73269134567E+007, -1.06036565905E-001, +2.13784450707E-001
+6.75770135068E+007, -9.84656254966E-002, +2.09032526878E-001
+6.78271135568E+007, -9.14782918361E-002, +2.04366951617E-001
+6.80772136068E+007, -8.49687024133E-002, +1.99721653636E-001
+6.83273136568E+007, -7.88053697114E-002, +1.95318891613E-001
+6.85774137069E+007, -7.30280736118E-002, +1.90823350166E-001
+6.88275137569E+007, -6.74569658308E-002, +1.86629754682E-001
+6.90776138069E+007, -6.23529384274E-002, +1.82334483299E-001
+6.93277138569E+007, -5.75628472113E-002, +1.78202071327E-001
+6.95778139070E+007, -5.30523163733E-002, +1.74133424665E-001
+6.98279139570E+007, -4.87263722267E-002, +1.70250261969E-001
+7.00780140070E+007, -4.48254867784E-002, +1.66303230813E-001
+7.03281140570E+007, -4.11554383902E-002, +1.62558557649E-001
+7.05782141071E+007, -3.75304065283E-002, +1.59013236459E-001
+7.08283141571E+007, -3.41040685845E-002, +1.55342875202E-001
+7.10784142071E+007, -3.09936812796E-002, +1.51862757006E-001
+7.13285142571E+007, -2.79122272000E-002, +1.48658948581E-001
+7.15786143072E+007, -2.51325941100E-002, +1.45324772073E-001
+7.18287143572E+007, -2.23852323608E-002, +1.42116971211E-001
+7.20788144072E+007, -1.97832013786E-002, +1.38933144516E-001
+7.23289144572E+007, -1.73801021575E-002, +1.35987144972E-001
+7.25790145073E+007, -1.49038922098E-002, +1.33052736527E-001
+7.28291145573E+007, -1.26618041009E-002, +1.30202019033E-001
+7.30792146073E+007, -1.04300923899E-002, +1.27238723499E-001
+7.33293146573E+007, -8.36278869881E-003, +1.24412615903E-001
+7.35794147074E+007, -6.43281847254E-003, +1.21647012012E-001
+7.38295147574E+007, -4.55159601213E-003, +1.19085150670E-001
+7.40796148074E+007, -2.91209441940E-003, +1.16334481811E-001
+7.43297148574E+007, -1.22417864659E-003, +1.13650254434E-001
+7.45798149075E+007, +4.12035913416E-004, +1.11169798201E-001
+7.48299149575E+007, +1.95002476952E-003, +1.08685019586E-001
+7.50800150075E+007, +3.35350043717E-003, +1.06166786877E-001
+7.53301150575E+007, +4.63352077205E-003, +1.03801541307E-001
+7.55802151076E+007, +5.90819543036E-003, +1.01455451862E-001
+7.58303151576E+007, +7.21417561294E-003, +9.91126934495E-002
+7.60804152076E+007, +8.31050610179E-003, +9.68859180057E-002
+7.63305152576E+007, +9.44592811662E-003, +9.46732787845E-002
+7.65806153077E+007, +1.04488061433E-002, +9.25055625447E-002
+7.68307153577E+007, +1.13762529860E-002, +9.03229941392E-002
+7.70808154077E+007, +1.23311642667E-002, +8.80418005438E-002
+7.73309154577E+007, +1.31901447261E-002, +8.61230595161E-002
+7.75810155078E+007, +1.39138692649E-002, +8.40527381762E-002
+7.78311155578E+007, +1.46812484797E-002, +8.20279815863E-002
+7.80812156078E+007, +1.54038979690E-002, +8.01897889569E-002
+7.83313156578E+007, +1.60471666715E-002, +7.81834485295E-002
+7.85814157079E+007, +1.66198713611E-002, +7.63221539935E-002
+7.88315157579E+007, +1.72208693959E-002, +7.45011311886E-002
+7.90816158079E+007, +1.77475410603E-002, +7.27448043353E-002
+7.93317158579E+007, +1.82710125860E-002, +7.09414401191E-002
+7.95818159080E+007, +1.87367807950E-002, +6.93243993337E-002
+7.98319159580E+007, +1.91792960648E-002, +6.74919074745E-002
+8.00820160080E+007, +1.96717422909E-002, +6.58744099258E-002
