"# Channel 1"
"# Trace 1"
Frequency, Formatted Data, Formatted Data
+5.00000000000E+004, +5.20411473958E+001, -5.94436742314E-002
+3.00100050025E+005, +5.00144419077E+001, +3.44383745465E-002
+5.50200100050E+005, +5.00381271919E+001, +1.18315689307E-001
+8.00300150075E+005, +5.00218647141E+001, +1.63662123489E-001
+1.05040020010E+006, +5.00717936598E+001, +1.94085834073E-001
+1.30050025013E+006, +5.00371506762E+001, +2.50395993524E-001
+1.55060030015E+006, +5.01196593083E+001, +2.38130036099E-001
+1.80070035018E+006, +5.00501534257E+001, +2.93194042471E-001
+2.05080040020E+006, +5.00464719506E+001, +3.39601811111E-001
+2.30090045023E+006, +5.00517490499E+001, +3.60511167688E-001
+2.55100050025E+006, +5.01008565309E+001, +4.11143666760E-001
+2.80110055028E+006, +5.00596977276E+001, +4.74554665770E-001
+3.05120060030E+006, +5.01215561446E+001, +5.15001280283E-001
+3.30130065033E+006, +5.01234662226E+001, +5.77074072107E-001
+3.55140070035E+006, +5.01099799109E+001, +6.02153920443E-001
+3.80150075038E+006, +5.01163713123E+001, +6.24178965051E-001
+4.05160080040E+006, +5.01512705938E+001, +6.73307643717E-001
+4.30170085043E+006, +5.01664278178E+001, +7.11596505741E-001
+4.55180090045E+006, +5.01797107742E+001, +7.91166077476E-001
+4.80190095048E+006, +5.01653270202E+001, +7.66599627680E-001
+5.05200100050E+006, +5.02268632126E+001, +8.13573761514E-001
+5.30210105053E+006, +5.02588436086E+001, +8.67078696802E-001
+5.55220110055E+006, +5.02272372813E+001, +9.23165056567E-001
+5.80230115058E+006, +5.02925039527E+001, +9.68574293462E-001
+6.05240120060E+006, +5.03194545907E+001, +9.74166182210E-001
+6.30250125063E+006, +5.03302102106E+001, +1.01251887928E+000
+6.55260130065E+006, +5.03326896337E+001, +1.01722631390E+000
+6.80270135068E+006, +5.03957527980E+001, +1.10271517636E+000
+7.05280140070E+006, +5.03685053690E+001, +1.11168845679E+000
+7.30290145073E+006, +5.04255784498E+001, +1.18436640085E+000
+7.55300150075E+006, +5.04484749583E+001, +1.18491833594E+000
+7.80310155078E+006, +5.04822537247E+001, +1.26633471085E+000
+8.05320160080E+006, +5.05032572146E+001, +1.29152284932E+000
+8.30330165083E+006, +5.05365037902E+001, +1.32936230573E+000
+8.55340170085E+006, +5.05762587929E+001, +1.36455856191E+000
+8.80350175088E+006, +5.06018599848E+001, +1.40091396610E+000
+9.05360180090E+006, +5.06336923093E+001, +1.43950460616E+000
+9.30370185093E+006, +5.06687844923E+001, +1.47788735497E+000
+9.55380190095E+006, +5.07064293426E+001, +1.49805749445E+000
+9.80390195098E+006, +5.07450415510E+001, +1.54111247439E+000
+1.00540020010E+007, +5.07730074641E+001, +1.57234095752E+000
+1.03041020510E+007, +5.08239274304E+001, +1.59817913790E+000
+1.05542021011E+007, +5.08573504573E+001, +1.63630622893E+000
+1.08043021511E+007, +5.09038180414E+001, +1.66402151360E+000
+1.10544022011E+007, +5.09470056954E+001, +1.69494790418E+000
+1.13045022511E+007, +5.09839038540E+001, +1.72623572926E+000
+1.15546023012E+007, +5.10259629194E+001, +1.76712147813E+000
+1.18047023512E+007, +5.10773769750E+001, +1.78257082427E+000
+1.20548024012E+007, +5.11110694411E+001, +1.80319239866E+000
+1.23049024512E+007, +5.11557809162E+001, +1.84191796326E+000
+1.25550025013E+007, +5.12153581272E+001, +1.86542447525E+000
+1.28051025513E+007, +5.12619032549E+001, +1.89065259755E+000
+1.30552026013E+007, +5.13023006051E+001, +1.91890811548E+000
+1.33053026513E+007, +5.13512380181E+001, +1.94713003458E+000
+1.35554027014E+007, +5.13954321624E+001, +1.97959086297E+000
+1.38055027514E+007, +5.14606199174E+001, +2.00046843490E+000
+1.40556028014E+007, +5.15005907382E+001, +2.01962158316E+000
+1.43057028514E+007, +5.15649658573E+001, +2.03963771481E+000
+1.45558029015E+007, +5.16102352925E+001, +2.06139794503E+000
+1.48059029515E+007, +5.16646806569E+001, +2.07823006905E+000
+1.50560030015E+007, +5.17174737599E+001, +2.10628634061E+000
+1.53061030515E+007, +5.17828540963E+001, +2.11553253034E+000
+1.55562031016E+007, +5.18383922115E+001, +2.13759851663E+000
+1.58063031516E+007, +5.18891324460E+001, +2.15222481474E+000
+1.60564032016E+007, +5.19472232587E+001, +2.16358481222E+000
+1.63065032516E+007, +5.20270426389E+001, +2.19340006507E+000
+1.65566033017E+007, +5.20781340294E+001, +2.20398426079E+000
+1.68067033517E+007, +5.21284102677E+001, +2.22542378793E+000
+1.70568034017E+007, +5.22035036068E+001, +2.23152326635E+000
+1.73069034517E+007, +5.22559995404E+001, +2.24565935881E+000
+1.75570035018E+007, +5.23305719199E+001, +2.24775229600E+000
+1.78071035518E+007, +5.23930512994E+001, +2.27278131802E+000
+1.80572036018E+007, +5.24504236809E+001, +2.27596427798E+000
+1.83073036518E+007, +5.25128062587E+001, +2.27604548023E+000
+1.85574037019E+007, +5.25979274314E+001, +2.28257063926E+000
+1.88075037519E+007, +5.26666705785E+001, +2.28422084207E+000
+1.90576038019E+007, +5.27219732315E+001, +2.30221392652E+000
+1.93077038519E+007, +5.27832177234E+001, +2.30548946715E+000
+1.95578039020E+007, +5.28706207150E+001, +2.31009263334E+000
+1.98079039520E+007, +5.29512207834E+001, +2.29565549675E+000
+2.00580040020E+007, +5.30021230307E+001, +2.31816032827E+000
+2.03081040520E+007, +5.30898469961E+001, +2.30239437109E+000
+2.05582041021E+007, +5.31624575145E+001, +2.29965270424E+000
+2.08083041521E+007, +5.32368194112E+001, +2.29775672529E+000
+2.10584042021E+007, +5.33060714000E+001, +2.29687434711E+000
+2.13085042521E+007, +5.33822889886E+001, +2.28086280158E+000
+2.15586043022E+007, +5.34626595175E+001, +2.28285227823E+000
+2.18087043522E+007, +5.35392063158E+001, +2.27454304521E+000
+2.20588044022E+007, +5.36198981571E+001, +2.25832815774E+000
+2.23089044522E+007, +5.37017029889E+001, +2.25442425742E+000
+2.25590045023E+007, +5.37858463180E+001, +2.24751382313E+000
+2.28091045523E+007, +5.38665812357E+001, +2.22557778303E+000
+2.30592046023E+007, +5.39288078877E+001, +2.21787290532E+000
+2.33093046523E+007, +5.40245482256E+001, +2.19344598937E+000
+2.35594047024E+007, +5.40914382646E+001, +2.17903914026E+000
+2.38095047524E+007, +5.41861624978E+001, +2.15352352950E+000
+2.40596048024E+007, +5.42710412724E+001, +2.14401359384E+000
+2.43097048524E+007, +5.43565574887E+001, +2.10845254372E+000
+2.45598049025E+007, +5.44437213887E+001, +2.10087920149E+000
+2.48099049525E+007, +5.45288268420E+001, +2.05761692299E+000
+2.50600050025E+007, +5.46158097088E+001, +2.03317078219E+000
+2.53101050525E+007, +5.47080953954E+001, +2.01015934526E+000
+2.55602051026E+007, +5.47910611846E+001, +1.97233149490E+000
+2.58103051526E+007, +5.48720601514E+001, +1.94519571148E+000
+2.60604052026E+007, +5.49686966466E+001, +1.91744034856E+000
+2.63105052526E+007, +5.50648177210E+001, +1.87288462095E+000
+2.65606053027E+007, +5.51539025845E+001, +1.83406234571E+000
+2.68107053527E+007, +5.52356434695E+001, +1.79201487124E+000
+2.70608054027E+007, +5.53206709029E+001, +1.75154076102E+000
+2.73109054527E+007, +5.54196740921E+001, +1.70709299121E+000
+2.75610055028E+007, +5.55137138671E+001, +1.66857481635E+000
+2.78111055528E+007, +5.56127411099E+001, +1.61500182911E+000
+2.80612056028E+007, +5.56989096767E+001, +1.56763292575E+000
+2.83113056528E+007, +5.57951143559E+001, +1.50987864029E+000
+2.85614057029E+007, +5.58964632064E+001, +1.45463047279E+000
+2.88115057529E+007, +5.59947427312E+001, +1.39980453024E+000
+2.90616058029E+007, +5.60803161187E+001, +1.34420326226E+000
+2.93117058529E+007, +5.61894282657E+001, +1.28697120159E+000
+2.95618059030E+007, +5.62726284171E+001, +1.22269863421E+000
+2.98119059530E+007, +5.63722480611E+001, +1.15619536914E+000
+3.00620060030E+007, +5.64805734670E+001, +1.09958437728E+000
+3.03121060530E+007, +5.65584727590E+001, +1.02839347577E+000
+3.05622061031E+007, +5.66692439999E+001, +9.45425183827E-001
+3.08123061531E+007, +5.67671484252E+001, +8.83426899597E-001
+3.10624062031E+007, +5.68638943221E+001, +7.98434970765E-001
+3.13125062531E+007, +5.69620642387E+001, +7.12266916376E-001
+3.15626063032E+007, +5.70550986269E+001, +6.38330856433E-001
+3.18127063532E+007, +5.71659180690E+001, +5.58429517382E-001
+3.20628064032E+007, +5.72575930638E+001, +4.69007656236E-001
+3.23129064532E+007, +5.73711287883E+001, +3.72454698581E-001
+3.25630065033E+007, +5.74687963427E+001, +2.87375195106E-001
+3.28131065533E+007, +5.75610007498E+001, +1.88891520413E-001
+3.30632066033E+007, +5.76522855118E+001, +8.70957481501E-002
+3.33133066533E+007, +5.77720301475E+001, -1.35976804890E-002
+3.35634067034E+007, +5.78603484824E+001, -1.12149227119E-001
+3.38135067534E+007, +5.79591415157E+001, -2.24667770706E-001
+3.40636068034E+007, +5.80599007348E+001, -3.21453249363E-001
+3.43137068534E+007, +5.81605168239E+001, -4.39129766826E-001
+3.45638069035E+007, +5.82489358876E+001, -5.51240954812E-001
+3.48139069535E+007, +5.83627576911E+001, -6.68837781979E-001
+3.50640070035E+007, +5.84577381128E+001, -8.06857012024E-001
+3.53141070535E+007, +5.85662618822E+001, -9.27797508529E-001
+3.55642071036E+007, +5.86482176559E+001, -1.05961815698E+000
+3.58143071536E+007, +5.87535927990E+001, -1.18473260126E+000
+3.60644072036E+007, +5.88599701010E+001, -1.33525351832E+000
+3.63145072536E+007, +5.89455188985E+001, -1.45480693657E+000
+3.65646073037E+007, +5.90534700893E+001, -1.60691730244E+000
+3.68147073537E+007, +5.91359331923E+001, -1.76555583191E+000
+3.70648074037E+007, +5.92372900065E+001, -1.90433406711E+000
+3.73149074537E+007, +5.93373524719E+001, -2.06106838786E+000
+3.75650075038E+007, +5.94317850993E+001, -2.22182308740E+000
+3.78151075538E+007, +5.95220797855E+001, -2.38431714860E+000
+3.80652076038E+007, +5.96151921693E+001, -2.55748319307E+000
+3.83153076538E+007, +5.97072495191E+001, -2.73296723558E+000
+3.85654077039E+007, +5.98031198163E+001, -2.89368269048E+000
+3.88155077539E+007, +5.98836562081E+001, -3.08823147004E+000
+3.90656078039E+007, +5.99891580951E+001, -3.26943407402E+000
+3.93157078539E+007, +6.00610437105E+001, -3.45611920770E+000
+3.95658079040E+007, +6.01597795641E+001, -3.66017026512E+000
+3.98159079540E+007, +6.02404465300E+001, -3.86519198960E+000
+4.00660080040E+007, +6.03373569488E+001, -4.06713631431E+000
+4.03161080540E+007, +6.04043661672E+001, -4.27424199267E+000
+4.05662081041E+007, +6.04957583630E+001, -4.49291660132E+000
+4.08163081541E+007, +6.05665478748E+001, -4.69578919268E+000
+4.10664082041E+007, +6.06476951234E+001, -4.93551278527E+000
+4.13165082541E+007, +6.07348641057E+001, -5.16930687312E+000
+4.15666083042E+007, +6.08051380459E+001, -5.41460112313E+000
+4.18167083542E+007, +6.08727454004E+001, -5.67165672384E+000
+4.20668084042E+007, +6.09475172208E+001, -5.90215749569E+000
+4.23169084542E+007, +6.10050446984E+001, -6.16342421745E+000
+4.25670085043E+007, +6.10881863326E+001, -6.42984801495E+000
+4.28171085543E+007, +6.11322278916E+001, -6.70553339471E+000
+4.30672086043E+007, +6.11933538489E+001, -6.97303909993E+000
+4.33173086543E+007, +6.12505274277E+001, -7.26485976587E+000
+4.35674087044E+007, +6.13097371464E+001, -7.56318905390E+000
+4.38175087544E+007, +6.13493796305E+001, -7.87289903323E+000
+4.40676088044E+007, +6.14031934314E+001, -8.16766705445E+000
+4.43177088544E+007, +6.14464848402E+001, -8.48585166957E+000
+4.45678089045E+007, +6.14774792520E+001, -8.80619095163E+000
+4.48179089545E+007, +6.15164707601E+001, -9.14292697139E+000
+4.50680090045E+007, +6.15484688937E+001, -9.48480500081E+000
+4.53181090545E+007, +6.15734040230E+001, -9.84687731928E+000
+4.55682091046E+007, +6.15909383646E+001, -1.01845373223E+001
+4.58183091546E+007, +6.15990117408E+001, -1.05679872325E+001
+4.60684092046E+007, +6.16049565512E+001, -1.09467030068E+001
+4.63185092546E+007, +6.16018776510E+001, -1.13238571662E+001
+4.65686093047E+007, +6.15939892579E+001, -1.17322270856E+001
+4.68187093547E+007, +6.15869893226E+001, -1.21446288269E+001
+4.70688094047E+007, +6.15419336158E+001, -1.25820233686E+001
+4.73189094547E+007, +6.15203333790E+001, -1.30205070000E+001
+4.75690095048E+007, +6.14670000173E+001, -1.34566010516E+001
+4.78191095548E+007, +6.14085470198E+001, -1.39223396523E+001
+4.80692096048E+007, +6.13536308840E+001, -1.44093904289E+001
+4.83193096548E+007, +6.12782387564E+001, -1.48746182669E+001
+4.85694097049E+007, +6.11888653878E+001, -1.53895294433E+001
+4.88195097549E+007, +6.10810064443E+001, -1.58892916131E+001
+4.90696098049E+007, +6.09615365908E+001, -1.64346350480E+001
+4.93197098549E+007, +6.08238314096E+001, -1.69686935937E+001
+4.95698099050E+007, +6.06752811111E+001, -1.75430703646E+001
+4.98199099550E+007, +6.05022768248E+001, -1.81187524687E+001
+5.00700100050E+007, +6.03160630795E+001, -1.87008438663E+001
+5.03201100550E+007, +6.01054693660E+001, -1.93286493986E+001
+5.05702101051E+007, +5.98655881161E+001, -1.99485984994E+001
+5.08203101551E+007, +5.95961750534E+001, -2.05823454853E+001
+5.10704102051E+007, +5.93111402949E+001, -2.12412120131E+001
+5.13205102551E+007, +5.89803662753E+001, -2.19290896240E+001
+5.15706103052E+007, +5.86301193216E+001, -2.26303922858E+001
+5.18207103552E+007, +5.82454599191E+001, -2.33376243835E+001
+5.20708104052E+007, +5.78093561578E+001, -2.40546343547E+001
+5.23209104552E+007, +5.73367972539E+001, -2.47992872274E+001
+5.25710105053E+007, +5.68324082280E+001, -2.55595650678E+001
+5.28211105553E+007, +5.62617018657E+001, -2.63521059490E+001
+5.30712106053E+007, +5.56411682186E+001, -2.71285448611E+001
+5.33213106553E+007, +5.49630535064E+001, -2.79304887773E+001
+5.35714107054E+007, +5.42176732460E+001, -2.87420455983E+001
+5.38215107554E+007, +5.34098099306E+001, -2.95553992751E+001
+5.40716108054E+007, +5.25254155144E+001, -3.03672051042E+001
+5.43217108554E+007, +5.15697298453E+001, -3.11782563381E+001
+5.45718109055E+007, +5.05098025164E+001, -3.19957240310E+001
+5.48219109555E+007, +4.93808970125E+001, -3.27815742345E+001
+5.50720110055E+007, +4.81436055114E+001, -3.35587676631E+001
+5.53221110555E+007, +4.68132066751E+001, -3.43045775737E+001
+5.55722111056E+007, +4.53460841226E+001, -3.49830979458E+001
+5.58223111556E+007, +4.37998860371E+001, -3.56304903771E+001
+5.60724112056E+007, +4.21264618736E+001, -3.62039462949E+001
+5.63225112556E+007, +4.03261832836E+001, -3.66968249464E+001
+5.65726113057E+007, +3.84255100228E+001, -3.70713622540E+001
+5.68227113557E+007, +3.63899024640E+001, -3.73314197460E+001
+5.70728114057E+007, +3.42664602715E+001, -3.74390779901E+001
+5.73229114557E+007, +3.20365532667E+001, -3.73794873929E+001
+5.75730115058E+007, +2.97085916170E+001, -3.71357666298E+001
+5.78231115558E+007, +2.73278217881E+001, -3.66838620498E+001
+5.80732116058E+007, +2.48960173499E+001, -3.59868893113E+001
+5.83233116558E+007, +2.24682338762E+001, -3.50468662892E+001
+5.85734117059E+007, +2.00442154749E+001, -3.38373226211E+001
+5.88235117559E+007, +1.76875277373E+001, -3.23749665066E+001
+5.90736118059E+007, +1.54545675748E+001, -3.06266568296E+001
+5.93237118559E+007, +1.33394766180E+001, -2.86144030698E+001
+5.95738119060E+007, +1.14339220374E+001, -2.63640605130E+001
+5.98239119560E+007, +9.75456395870E+000, -2.39074452401E+001
+6.00740120060E+007, +8.33767346527E+000, -2.12758857744E+001
+6.03241120560E+007, +7.20754551795E+000, -1.84952202601E+001
+6.05742121061E+007, +6.38874151593E+000, -1.56331433939E+001
+6.08243121561E+007, +5.88497482910E+000, -1.27231589977E+001
+6.10744122061E+007, +5.69003458858E+000, -9.83603790946E+000
+6.13245122561E+007, +5.79428131074E+000, -6.99754731674E+000
+6.15746123062E+007, +6.17068927194E+000, -4.25062772977E+000
+6.18247123562E+007, +6.79660599493E+000, -1.62442239775E+000
+6.20748124062E+007, +7.63531069148E+000, +8.45678276544E-001
+6.23249124562E+007, +8.67542522320E+000, +3.13613492970E+000
+6.25750125063E+007, +9.85460099127E+000, +5.24911772083E+000
+6.28251125563E+007, +1.11635388938E+001, +7.15505975390E+000
+6.30752126063E+007, +1.25536849126E+001, +8.89096367973E+000
+6.33253126563E+007, +1.40219597901E+001, +1.04183971515E+001
+6.35754127064E+007, +1.55108927565E+001, +1.17752750707E+001
+6.38255127564E+007, +1.70329564680E+001, +1.29583275661E+001
+6.40756128064E+007, +1.85670214699E+001, +1.39927730350E+001
+6.43257128564E+007, +2.00629182846E+001, +1.48641011147E+001
+6.45758129065E+007, +2.15497484972E+001, +1.56017540843E+001
+6.48259129565E+007, +2.30074447435E+001, +1.62330142080E+001
+6.50760130065E+007, +2.43977979596E+001, +1.67320111717E+001
+6.53261130565E+007, +2.57665463545E+001, +1.71453198097E+001
+6.55762131066E+007, +2.70850524867E+001, +1.74777022665E+001
+6.58263131566E+007, +2.83644485633E+001, +1.77132612866E+001
+6.60764132066E+007, +2.95805944601E+001, +1.78819992325E+001
+6.63265132566E+007, +3.07276334755E+001, +1.79840245067E+001
+6.65766133067E+007, +3.18396782984E+001, +1.80366909773E+001
+6.68267133567E+007, +3.28921116338E+001, +1.80525677331E+001
+6.70768134067E+007, +3.39045343097E+001, +1.80163346048E+001
+6.73269134567E+007, +3.48696963507E+001, +1.79464482548E+001
+6.75770135068E+007, +3.57781701071E+001, +1.78508398695E+001
+6.78271135568E+007, +3.66458923458E+001, +1.77201527932E+001
+6.80772136068E+007, +3.74712774098E+001, +1.75694086590E+001
+6.83273136568E+007, +3.82647205309E+001, +1.73957573911E+001
+6.85774137069E+007, +3.90058738610E+001, +1.72073668400E+001
+6.88275137569E+007, +3.97195774415E+001, +1.69984519273E+001
+6.90776138069E+007, +4.03880911674E+001, +1.67853589199E+001
+6.93277138569E+007, +4.10311135041E+001, +1.65536148432E+001
+6.95778139070E+007, +4.16295462794E+001, +1.63170794159E+001
+6.98279139570E+007, +4.22129662581E+001, +1.60786004174E+001
+7.00780140070E+007, +4.27569804691E+001, +1.58291639871E+001
+7.03281140570E+007, +4.32761517174E+001, +1.55759612233E+001
+7.05782141071E+007, +4.37664551620E+001, +1.53135644446E+001
+7.08283141571E+007, +4.42320142880E+001, +1.50487482536E+001
+7.10784142071E+007, +4.46747204845E+001, +1.47952306760E+001
+7.13285142571E+007, +4.50958474880E+001, +1.45318944060E+001
+7.15786143072E+007, +4.54955685819E+001, +1.42730896097E+001
+7.18287143572E+007, +4.58808215738E+001, +1.40165698405E+001
+7.20788144072E+007, +4.62371704889E+001, +1.37560913758E+001
+7.23289144572E+007, +4.65890097506E+001, +1.34928173159E+001
+7.25790145073E+007, +4.69183884392E+001, +1.32357915811E+001
+7.28291145573E+007, +4.72257648204E+001, +1.29823470912E+001
+7.30792146073E+007, +4.75236657224E+001, +1.27262355904E+001
+7.33293146573E+007, +4.78051151236E+001, +1.24749149225E+001
+7.35794147074E+007, +4.80772503411E+001, +1.22247368804E+001
+7.38295147574E+007, +4.83283226468E+001, +1.19852298292E+001
+7.40796148074E+007, +4.85692574429E+001, +1.17342966438E+001
+7.43297148574E+007, +4.88011645738E+001, +1.14895652764E+001
+7.45798149075E+007, +4.90303336751E+001, +1.12549508836E+001
+7.48299149575E+007, +4.92348422740E+001, +1.10246789758E+001
+7.50800150075E+007, +4.94357694069E+001, +1.07866744904E+001
+7.53301150575E+007, +4.96203553924E+001, +1.05540973144E+001
+7.55802151076E+007, +4.97988953379E+001, +1.03380105563E+001
+7.58303151576E+007, +4.99759983786E+001, +1.01083330200E+001
+7.60804152076E+007, +5.01352245703E+001, +9.88796147323E+000
+7.63305152576E+007, +5.02870280856E+001, +9.67138740311E+000
+7.65806153077E+007, +5.04280431768E+001, +9.45758065277E+000
+7.68307153577E+007, +5.05716969849E+001, +9.23924988670E+000
+7.70808154077E+007, +5.07145878979E+001, +9.01864381291E+000
+7.73309154577E+007, +5.08348167188E+001, +8.80359284851E+000
+7.75810155078E+007, +5.09455077398E+001, +8.60761042877E+000
+7.78311155578E+007, +5.10574239605E+001, +8.40344516317E+000
+7.80812156078E+007, +5.11555468417E+001, +8.21051734802E+000
+7.83313156578E+007, +5.12542221225E+001, +8.01392217914E+000
+7.85814157079E+007, +5.13463521076E+001, +7.82309513051E+000
+7.88315157579E+007, +5.14206114308E+001, +7.62350539591E+000
+7.90816158079E+007, +5.15159053175E+001, +7.44247809313E+000
+7.93317158579E+007, +5.15832124263E+001, +7.25330879911E+000
+7.95818159080E+007, +5.16463012062E+001, +7.07479336412E+000
+7.98319159580E+007, +5.17160176201E+001, +6.90422042821E+000
+8.00820160080E+007, +5.17851530117E+001, +6.73027781109E+000
