"# Channel 1"
"# Trace 1"
Frequency, Formatted Data, Formatted Data
+5.00000000000E+004, +1.93956176359E-002, -1.80944505057E-003
+3.00100050025E+005, +9.62117881301E-005, +4.39681400201E-004
+5.50200100050E+005, -5.85834125140E-005, +1.11936898133E-003
+8.00300150075E+005, +4.11028243312E-004, +1.79645992643E-003
+1.05040020010E+006, +5.21933922134E-004, +2.57170949535E-003
+1.30050025013E+006, +6.66453838719E-005, +2.68298200979E-003
+1.55060030015E+006, +5.27774752416E-004, +3.38866266408E-003
+1.80070035018E+006, +4.02630494577E-004, +3.48257161392E-003
+2.05080040020E+006, +7.87478926124E-004, +3.98341516983E-003
+2.30090045023E+006, +9.69967073641E-004, +4.69522116467E-003
+2.55100050025E+006, +5.31062743082E-004, +4.76616873607E-003
+2.80110055028E+006, +8.10605793311E-004, +5.71466761356E-003
+3.05120060030E+006, +1.36024734885E-003, +5.96227691170E-003
+3.30130065033E+006, +9.98931753499E-004, +6.87756056890E-003
+3.55140070035E+006, +1.44171283539E-003, +6.82215574595E-003
+3.80150075038E+006, +1.28846310767E-003, +7.36874066890E-003
+4.05160080040E+006, +1.63851504121E-003, +7.70307652425E-003
+4.30170085043E+006, +2.36740934691E-003, +8.43932658802E-003
+4.55180090045E+006, +1.66227225349E-003, +8.82058957428E-003
+4.80190095048E+006, +2.32301346123E-003, +9.57070438000E-003
+5.05200100050E+006, +2.30962147515E-003, +9.67107561596E-003
+5.30210105053E+006, +2.93805192044E-003, +1.03789649131E-002
+5.55220110055E+006, +2.69945811648E-003, +1.05610428285E-002
+5.80230115058E+006, +3.08646658799E-003, +1.08047319856E-002
+6.05240120060E+006, +3.39809250204E-003, +1.14803670359E-002
+6.30250125063E+006, +3.94563507424E-003, +1.17271600145E-002
+6.55260130065E+006, +4.02250140717E-003, +1.23226311036E-002
+6.80270135068E+006, +4.12417754696E-003, +1.28492885388E-002
+7.05280140070E+006, +4.63558147891E-003, +1.31474203950E-002
+7.30290145073E+006, +4.57707965084E-003, +1.37234674860E-002
+7.55300150075E+006, +5.07402131903E-003, +1.41524424077E-002
+7.80310155078E+006, +5.81137011886E-003, +1.45642829310E-002
+8.05320160080E+006, +5.78509408347E-003, +1.45229361053E-002
+8.30330165083E+006, +6.11131676406E-003, +1.52156908356E-002
+8.55340170085E+006, +6.63782412623E-003, +1.57746473578E-002
+8.80350175088E+006, +6.99867072470E-003, +1.62374682807E-002
+9.05360180090E+006, +7.42321749908E-003, +1.65283065659E-002
+9.30370185093E+006, +7.84599983229E-003, +1.69047932573E-002
+9.55380190095E+006, +8.16091084676E-003, +1.72584146059E-002
+9.80390195098E+006, +8.64206870978E-003, +1.76000550879E-002
+1.00540020010E+007, +9.07549269263E-003, +1.81211283363E-002
+1.03041020510E+007, +9.57635980886E-003, +1.84022204764E-002
+1.05542021011E+007, +9.98940250823E-003, +1.86952798445E-002
+1.08043021511E+007, +1.04435218452E-002, +1.90766590561E-002
+1.10544022011E+007, +1.09333790704E-002, +1.95368739762E-002
+1.13045022511E+007, +1.13743682555E-002, +1.97784309257E-002
+1.15546023012E+007, +1.18876974513E-002, +2.01050953079E-002
+1.18047023512E+007, +1.24651832329E-002, +2.04233992016E-002
+1.20548024012E+007, +1.30114755218E-002, +2.06946404706E-002
+1.23049024512E+007, +1.34160943032E-002, +2.10720256071E-002
+1.25550025013E+007, +1.41658563730E-002, +2.13454915136E-002
+1.28051025513E+007, +1.45960077943E-002, +2.16092652120E-002
+1.30552026013E+007, +1.51361601216E-002, +2.18643876527E-002
+1.33053026513E+007, +1.57021416376E-002, +2.21466741502E-002
+1.35554027014E+007, +1.62146622717E-002, +2.24372660088E-002
+1.38055027514E+007, +1.68605088022E-002, +2.27351812183E-002
+1.40556028014E+007, +1.75230779900E-002, +2.28975129879E-002
+1.43057028514E+007, +1.80044271759E-002, +2.31207173100E-002
+1.45558029015E+007, +1.86639483641E-002, +2.33864564494E-002
+1.48059029515E+007, +1.92933361761E-002, +2.36734235224E-002
+1.50560030015E+007, +1.98950084818E-002, +2.38457662280E-002
+1.53061030515E+007, +2.05763307754E-002, +2.41102295640E-002
+1.55562031016E+007, +2.11881049459E-002, +2.43905885323E-002
+1.58063031516E+007, +2.18270669320E-002, +2.42955748095E-002
+1.60564032016E+007, +2.25762648271E-002, +2.45530354134E-002
+1.63065032516E+007, +2.30805605701E-002, +2.47910521982E-002
+1.65566033017E+007, +2.39380457387E-002, +2.48213232023E-002
+1.68067033517E+007, +2.46466162737E-002, +2.50321806647E-002
+1.70568034017E+007, +2.53178570919E-002, +2.51684794138E-002
+1.73069034517E+007, +2.59845388227E-002, +2.51887576555E-002
+1.75570035018E+007, +2.67042261107E-002, +2.53471993412E-002
+1.78071035518E+007, +2.75146508087E-002, +2.55003755417E-002
+1.80572036018E+007, +2.83123800751E-002, +2.54988603255E-002
+1.83073036518E+007, +2.90020580511E-002, +2.56773040737E-002
+1.85574037019E+007, +2.96799170928E-002, +2.56531662595E-002
+1.88075037519E+007, +3.05155377992E-002, +2.56990270087E-002
+1.90576038019E+007, +3.12023040683E-002, +2.57712111289E-002
+1.93077038519E+007, +3.21453072776E-002, +2.58170174862E-002
+1.95578039020E+007, +3.29414373690E-002, +2.57533247421E-002
+1.98079039520E+007, +3.35879611009E-002, +2.57318560244E-002
+2.00580040020E+007, +3.43654132723E-002, +2.57838601058E-002
+2.03081040520E+007, +3.51836327041E-002, +2.56730857532E-002
+2.05582041021E+007, +3.61676797076E-002, +2.56597157046E-002
+2.08083041521E+007, +3.68479441534E-002, +2.56013572623E-002
+2.10584042021E+007, +3.76806399990E-002, +2.54976647191E-002
+2.13085042521E+007, +3.86534296303E-002, +2.55050904368E-002
+2.15586043022E+007, +3.93461752866E-002, +2.53149836116E-002
+2.18087043522E+007, +4.03116236341E-002, +2.52553872852E-002
+2.20588044022E+007, +4.11253510800E-002, +2.50996775840E-002
+2.23089044522E+007, +4.19916445764E-002, +2.49048652060E-002
+2.25590045023E+007, +4.28896136791E-002, +2.48603769619E-002
+2.28091045523E+007, +4.37099234600E-002, +2.46599021677E-002
+2.30592046023E+007, +4.46576969411E-002, +2.45114681095E-002
+2.33093046523E+007, +4.54555910969E-002, +2.42677878765E-002
+2.35594047024E+007, +4.64031706415E-002, +2.38784592839E-002
+2.38095047524E+007, +4.73390450084E-002, +2.37827190008E-002
+2.40596048024E+007, +4.82216811493E-002, +2.34135979733E-002
+2.43097048524E+007, +4.91568279157E-002, +2.32631956468E-002
+2.45598049025E+007, +5.01641417076E-002, +2.30282885855E-002
+2.48099049525E+007, +5.09515416498E-002, +2.27715591587E-002
+2.50600050025E+007, +5.20422154998E-002, +2.23727499293E-002
+2.53101050525E+007, +5.28950666273E-002, +2.20138358727E-002
+2.55602051026E+007, +5.38712603172E-002, +2.17557449101E-002
+2.58103051526E+007, +5.47240149168E-002, +2.13984383028E-002
+2.60604052026E+007, +5.58002550441E-002, +2.09191551226E-002
+2.63105052526E+007, +5.67470954357E-002, +2.04903582064E-002
+2.65606053027E+007, +5.76949459388E-002, +2.01373940249E-002
+2.68107053527E+007, +5.87069232696E-002, +1.96304253014E-002
+2.70608054027E+007, +5.96563806126E-002, +1.92343877525E-002
+2.73109054527E+007, +6.06702643501E-002, +1.87767900591E-002
+2.75610055028E+007, +6.16429701104E-002, +1.82041893395E-002
+2.78111055528E+007, +6.25905216258E-002, +1.76554532923E-002
+2.80612056028E+007, +6.36333665327E-002, +1.70423528013E-002
+2.83113056528E+007, +6.46474651457E-002, +1.66147758484E-002
+2.85614057029E+007, +6.56104414191E-002, +1.59628762632E-002
+2.88115057529E+007, +6.66167300993E-002, +1.54341392380E-002
+2.90616058029E+007, +6.76812380353E-002, +1.47515498926E-002
+2.93117058529E+007, +6.86931858905E-002, +1.42234289290E-002
+2.95618059030E+007, +6.96909924406E-002, +1.35300590275E-002
+2.98119059530E+007, +7.08007457953E-002, +1.27159505370E-002
+3.00620060030E+007, +7.17298819281E-002, +1.21068712841E-002
+3.03121060530E+007, +7.28264174849E-002, +1.14471052181E-002
+3.05622061031E+007, +7.39143124934E-002, +1.06595227773E-002
+3.08123061531E+007, +7.49063907046E-002, +9.88665391619E-003
+3.10624062031E+007, +7.59724466483E-002, +9.01876557909E-003
+3.13125062531E+007, +7.70303445032E-002, +8.25447456784E-003
+3.15626063032E+007, +7.80245456069E-002, +7.31539209113E-003
+3.18127063532E+007, +7.91487335031E-002, +6.48142967260E-003
+3.20628064032E+007, +8.01810426904E-002, +5.58054332731E-003
+3.23129064532E+007, +8.11325953404E-002, +4.64106352360E-003
+3.25630065033E+007, +8.23178794183E-002, +3.75569469461E-003
+3.28131065533E+007, +8.34571868287E-002, +2.79945949226E-003
+3.30632066033E+007, +8.44391801284E-002, +1.82444444986E-003
+3.33133066533E+007, +8.55106040433E-002, +8.77956174274E-004
+3.35634067034E+007, +8.65792037203E-002, -3.39590484631E-004
+3.38135067534E+007, +8.76456043896E-002, -1.30840178885E-003
+3.40636068034E+007, +8.87790858781E-002, -2.46234927183E-003
+3.43137068534E+007, +8.98062951020E-002, -3.67412446964E-003
+3.45638069035E+007, +9.09640373763E-002, -4.80367493640E-003
+3.48139069535E+007, +9.20127196175E-002, -6.02527729470E-003
+3.50640070035E+007, +9.32094980779E-002, -7.19864529442E-003
+3.53141070535E+007, +9.40609695031E-002, -8.49888241984E-003
+3.55642071036E+007, +9.52220543119E-002, -9.76147945443E-003
+3.58143071536E+007, +9.63892864552E-002, -1.12366939129E-002
+3.60644072036E+007, +9.74605990310E-002, -1.24333602040E-002
+3.63145072536E+007, +9.85253330915E-002, -1.39043049674E-002
+3.65646073037E+007, +9.95279798723E-002, -1.52945902019E-002
+3.68147073537E+007, +1.00746340354E-001, -1.68238603121E-002
+3.70648074037E+007, +1.01761243426E-001, -1.82458109074E-002
+3.73149074537E+007, +1.03009528900E-001, -1.98105520952E-002
+3.75650075038E+007, +1.04159366577E-001, -2.14541367671E-002
+3.78151075538E+007, +1.05061335194E-001, -2.30406713260E-002
+3.80652076038E+007, +1.06230710717E-001, -2.47157971846E-002
+3.83153076538E+007, +1.07258143761E-001, -2.64429290859E-002
+3.85654077039E+007, +1.08332755680E-001, -2.82078067460E-002
+3.88155077539E+007, +1.09510984459E-001, -2.99848607871E-002
+3.90656078039E+007, +1.10655593123E-001, -3.17591074263E-002
+3.93157078539E+007, +1.11711022863E-001, -3.36173931059E-002
+3.95658079040E+007, +1.12794490753E-001, -3.55694201020E-002
+3.98159079540E+007, +1.13826744890E-001, -3.75618887670E-002
+4.00660080040E+007, +1.14949261572E-001, -3.95775441031E-002
+4.03161080540E+007, +1.16038013623E-001, -4.16488061827E-002
+4.05662081041E+007, +1.17171170014E-001, -4.38149826324E-002
+4.08163081541E+007, +1.18204125687E-001, -4.60071328575E-002
+4.10664082041E+007, +1.19332426621E-001, -4.82385120388E-002
+4.13165082541E+007, +1.20428061711E-001, -5.05011739420E-002
+4.15666083042E+007, +1.21584554084E-001, -5.30357298467E-002
+4.18167083542E+007, +1.22649557985E-001, -5.53101720773E-002
+4.20668084042E+007, +1.23737109919E-001, -5.79124915835E-002
+4.23169084542E+007, +1.24736944634E-001, -6.04883551360E-002
+4.25670085043E+007, +1.25765591535E-001, -6.29818067784E-002
+4.28171085543E+007, +1.26882986744E-001, -6.57770679633E-002
+4.30672086043E+007, +1.27914079233E-001, -6.85509406712E-002
+4.33173086543E+007, +1.28949275647E-001, -7.14680467582E-002
+4.35674087044E+007, +1.29949741907E-001, -7.44551937914E-002
+4.38175087544E+007, +1.30992021128E-001, -7.73644821422E-002
+4.40676088044E+007, +1.32082586392E-001, -8.06544895821E-002
+4.43177088544E+007, +1.33064537444E-001, -8.36979758915E-002
+4.45678089045E+007, +1.34058275664E-001, -8.70217787024E-002
+4.48179089545E+007, +1.35108966724E-001, -9.05383897689E-002
+4.50680090045E+007, +1.36069451657E-001, -9.40359249874E-002
+4.53181090545E+007, +1.37072742538E-001, -9.75012790325E-002
+4.55682091046E+007, +1.37955381229E-001, -1.01382765234E-001
+4.58183091546E+007, +1.38955640852E-001, -1.05292007187E-001
+4.60684092046E+007, +1.39802399459E-001, -1.09252673007E-001
+4.63185092546E+007, +1.40684463649E-001, -1.13389932738E-001
+4.65686093047E+007, +1.41566939050E-001, -1.17587589541E-001
+4.68187093547E+007, +1.42528892078E-001, -1.22033102366E-001
+4.70688094047E+007, +1.43225903503E-001, -1.26561024910E-001
+4.73189094547E+007, +1.44036393996E-001, -1.31249301914E-001
+4.75690095048E+007, +1.44786787363E-001, -1.36270354186E-001
+4.78191095548E+007, +1.45635339962E-001, -1.41307214828E-001
+4.80692096048E+007, +1.46230743957E-001, -1.46639690603E-001
+4.83193096548E+007, +1.46850355780E-001, -1.51976302391E-001
+4.85694097049E+007, +1.47351432281E-001, -1.57665392269E-001
+4.88195097549E+007, +1.47930378623E-001, -1.63699964670E-001
+4.90696098049E+007, +1.48380647932E-001, -1.69764976025E-001
+4.93197098549E+007, +1.48676453671E-001, -1.76303432984E-001
+4.95698099050E+007, +1.49023353792E-001, -1.82886965453E-001
+4.98199099550E+007, +1.49104749306E-001, -1.89877923399E-001
+5.00700100050E+007, +1.49216250875E-001, -1.97230641796E-001
+5.03201100550E+007, +1.49145657825E-001, -2.04908998774E-001
+5.05702101051E+007, +1.48812669707E-001, -2.12808468394E-001
+5.08203101551E+007, +1.48462143963E-001, -2.21252133747E-001
+5.10704102051E+007, +1.47932555957E-001, -2.29981724145E-001
+5.13205102551E+007, +1.47216145407E-001, -2.39181838784E-001
+5.15706103052E+007, +1.46246492156E-001, -2.48793833295E-001
+5.18207103552E+007, +1.44972971262E-001, -2.58974282979E-001
+5.20708104052E+007, +1.43242583804E-001, -2.69692754583E-001
+5.23209104552E+007, +1.41243286381E-001, -2.80964734067E-001
+5.25710105053E+007, +1.38946541667E-001, -2.92748127779E-001
+5.28211105553E+007, +1.36099798915E-001, -3.05390153540E-001
+5.30712106053E+007, +1.32648591446E-001, -3.18595527511E-001
+5.33213106553E+007, +1.28654085977E-001, -3.32569929909E-001
+5.35714107054E+007, +1.23815050916E-001, -3.47466845474E-001
+5.38215107554E+007, +1.18240296080E-001, -3.63214160327E-001
+5.40716108054E+007, +1.11620514057E-001, -3.79745245490E-001
+5.43217108554E+007, +1.03757684085E-001, -3.97212231352E-001
+5.45718109055E+007, +9.46325784112E-002, -4.15622123025E-001
+5.48219109555E+007, +8.36992151443E-002, -4.35207539966E-001
+5.50720110055E+007, +7.09414894938E-002, -4.55639301542E-001
+5.53221110555E+007, +5.60005059699E-002, -4.77204232878E-001
+5.55722111056E+007, +3.86429591497E-002, -4.99663716072E-001
+5.58223111556E+007, +1.79766174774E-002, -5.22725298952E-001
+5.60724112056E+007, -6.20371735567E-003, -5.46405264147E-001
+5.63225112556E+007, -3.40993904551E-002, -5.70732392203E-001
+5.65726113057E+007, -6.72377048031E-002, -5.94339614425E-001
+5.68227113557E+007, -1.05501199231E-001, -6.17099922182E-001
+5.70728114057E+007, -1.49941457290E-001, -6.37986859800E-001
+5.73229114557E+007, -2.00569161245E-001, -6.55627518770E-001
+5.75730115058E+007, -2.58202042517E-001, -6.68404122785E-001
+5.78231115558E+007, -3.22360982626E-001, -6.73927813939E-001
+5.80732116058E+007, -3.92297006880E-001, -6.70481045402E-001
+5.83233116558E+007, -4.66066506422E-001, -6.55105537351E-001
+5.85734117059E+007, -5.41651546941E-001, -6.26143784049E-001
+5.88235117559E+007, -6.15035842297E-001, -5.82093515240E-001
+5.90736118059E+007, -6.82060281868E-001, -5.23171561108E-001
+5.93237118559E+007, -7.37804810708E-001, -4.51030114165E-001
+5.95738119060E+007, -7.79744421776E-001, -3.68957789688E-001
+5.98239119560E+007, -8.04442514384E-001, -2.81130979898E-001
+6.00740120060E+007, -8.12351965892E-001, -1.92636273365E-001
+6.03241120560E+007, -8.04629886292E-001, -1.08401750714E-001
+6.05742121061E+007, -7.83601397599E-001, -3.08690686639E-002
+6.08243121561E+007, -7.52477586706E-001, +3.70553807081E-002
+6.10744122061E+007, -7.14892144894E-001, +9.52111757387E-002
+6.13245122561E+007, -6.72968816463E-001, +1.42909496473E-001
+6.15746123062E+007, -6.29125740007E-001, +1.81418225648E-001
+6.18247123562E+007, -5.85601543273E-001, +2.11949707561E-001
+6.20748124062E+007, -5.42953542202E-001, +2.34847336870E-001
+6.23249124562E+007, -5.02953646805E-001, +2.51786298174E-001
+6.25750125063E+007, -4.65051446947E-001, +2.64419541214E-001
+6.28251125563E+007, -4.29447115898E-001, +2.72732645934E-001
+6.30752126063E+007, -3.96744587936E-001, +2.77797087534E-001
+6.33253126563E+007, -3.66460339746E-001, +2.80577674516E-001
+6.35754127064E+007, -3.38685739731E-001, +2.81085782174E-001
+6.38255127564E+007, -3.13245315086E-001, +2.80479096923E-001
+6.40756128064E+007, -2.89914150383E-001, +2.78414631864E-001
+6.43257128564E+007, -2.68153297529E-001, +2.75730672905E-001
+6.45758129065E+007, -2.48549834382E-001, +2.72055319833E-001
+6.48259129565E+007, -2.30170127593E-001, +2.67947352688E-001
+6.50760130065E+007, -2.13686872966E-001, +2.63431578449E-001
+6.53261130565E+007, -1.98271237617E-001, +2.58590411599E-001
+6.55762131066E+007, -1.83902051467E-001, +2.53594663654E-001
+6.58263131566E+007, -1.70963419459E-001, +2.48702245105E-001
+6.60764132066E+007, -1.58678915059E-001, +2.43614572967E-001
+6.63265132566E+007, -1.47399337959E-001, +2.38727500671E-001
+6.65766133067E+007, -1.37114321771E-001, +2.33287179725E-001
+6.68267133567E+007, -1.27224949519E-001, +2.28171685153E-001
+6.70768134067E+007, -1.18239175372E-001, +2.23283830193E-001
+6.73269134567E+007, -1.09806702966E-001, +2.18134511992E-001
+6.75770135068E+007, -1.02000191992E-001, +2.13310134743E-001
+6.78271135568E+007, -9.46705778789E-002, +2.08405837208E-001
+6.80772136068E+007, -8.78470433352E-002, +2.03762959954E-001
+6.83273136568E+007, -8.13844559401E-002, +1.99106501329E-001
+6.85774137069E+007, -7.51646963804E-002, +1.94542991128E-001
+6.88275137569E+007, -6.96404112150E-002, +1.90127086656E-001
+6.90776138069E+007, -6.43675460518E-002, +1.85814642643E-001
+6.93277138569E+007, -5.92493461529E-002, +1.81533324046E-001
+6.95778139070E+007, -5.46606214315E-002, +1.77303939522E-001
+6.98279139570E+007, -5.02327494133E-002, +1.73377540055E-001
+7.00780140070E+007, -4.60896156566E-002, +1.69366201938E-001
+7.03281140570E+007, -4.22960146737E-002, +1.65513518583E-001
+7.05782141071E+007, -3.85950663982E-002, +1.61724680054E-001
+7.08283141571E+007, -3.51313465832E-002, +1.58130205030E-001
+7.10784142071E+007, -3.18467035950E-002, +1.54590595432E-001
+7.13285142571E+007, -2.86133663326E-002, +1.51238195727E-001
+7.15786143072E+007, -2.56875782150E-002, +1.47809532082E-001
+7.18287143572E+007, -2.28180704225E-002, +1.44509503941E-001
+7.20788144072E+007, -2.00986065989E-002, +1.41439141819E-001
+7.23289144572E+007, -1.77257372302E-002, +1.38152431226E-001
+7.25790145073E+007, -1.51995338412E-002, +1.35118383959E-001
+7.28291145573E+007, -1.28772492628E-002, +1.32236866298E-001
+7.30792146073E+007, -1.06919158059E-002, +1.29178724607E-001
+7.33293146573E+007, -8.59866621072E-003, +1.26316938145E-001
+7.35794147074E+007, -6.59974316536E-003, +1.23409709375E-001
+7.38295147574E+007, -4.66095316582E-003, +1.20781183466E-001
+7.40796148074E+007, -2.94930367094E-003, +1.17956618723E-001
+7.43297148574E+007, -1.25688081593E-003, +1.15296237432E-001
+7.45798149075E+007, +4.04081820433E-004, +1.12714170223E-001
+7.48299149575E+007, +1.95125997318E-003, +1.10130183051E-001
+7.50800150075E+007, +3.40504784008E-003, +1.07575452252E-001
+7.53301150575E+007, +4.67409561236E-003, +1.05162114823E-001
+7.55802151076E+007, +5.97212477148E-003, +1.02681196399E-001
+7.58303151576E+007, +7.27046798630E-003, +1.00478342945E-001
+7.60804152076E+007, +8.40366762133E-003, +9.80641760732E-002
+7.63305152576E+007, +9.47820913191E-003, +9.57838797221E-002
+7.65806153077E+007, +1.04720201997E-002, +9.36290313259E-002
+7.68307153577E+007, +1.14929613170E-002, +9.15271228812E-002
+7.70808154077E+007, +1.24898859452E-002, +8.92760232814E-002
+7.73309154577E+007, +1.32927026146E-002, +8.71964516409E-002
+7.75810155078E+007, +1.41876057427E-002, +8.50470467302E-002
+7.78311155578E+007, +1.49416264818E-002, +8.30358834990E-002
+7.80812156078E+007, +1.56198723556E-002, +8.11569567707E-002
+7.83313156578E+007, +1.62553911100E-002, +7.91881886837E-002
+7.85814157079E+007, +1.68737802495E-002, +7.72929176313E-002
+7.88315157579E+007, +1.74953892498E-002, +7.54970050528E-002
+7.90816158079E+007, +1.79946288470E-002, +7.36345753272E-002
+7.93317158579E+007, +1.85321353084E-002, +7.18021531825E-002
+7.95818159080E+007, +1.90827756849E-002, +7.02013286928E-002
+7.98319159580E+007, +1.95338005714E-002, +6.84148506724E-002
+8.00820160080E+007, +1.98776410502E-002, +6.65456196864E-002
