"# Channel 1"
"# Trace 1"
Frequency, Formatted Data, Formatted Data
+5.00000000000E+004, +2.06590819997E-002, -3.35339465293E-003
+3.00100050025E+005, +6.77886482649E-004, +5.63740984996E-004
+5.50200100050E+005, +7.13565183028E-005, +1.56344158205E-003
+8.00300150075E+005, -1.10504460701E-005, +9.66097452423E-004
+1.05040020010E+006, +8.03280626682E-004, +2.44421504373E-003
+1.30050025013E+006, +4.15693155157E-004, +2.78973478552E-003
+1.55060030015E+006, +5.69968695257E-004, +3.15718310455E-003
+1.80070035018E+006, +4.22627706553E-004, +3.98559482074E-003
+2.05080040020E+006, +6.49509040424E-005, +3.83504559181E-003
+2.30090045023E+006, +1.10189189379E-003, +4.44235163878E-003
+2.55100050025E+006, +6.92663164568E-004, +4.94810173456E-003
+2.80110055028E+006, +1.14951954110E-003, +5.24649197077E-003
+3.05120060030E+006, +1.32394024185E-003, +6.00321113604E-003
+3.30130065033E+006, +1.45448507057E-003, +6.60663538531E-003
+3.55140070035E+006, +1.10029494342E-003, +7.00325371222E-003
+3.80150075038E+006, +1.30147371414E-003, +7.65983003813E-003
+4.05160080040E+006, +1.51495418886E-003, +8.38783131283E-003
+4.30170085043E+006, +1.19621109873E-003, +8.18060196168E-003
+4.55180090045E+006, +1.95136470763E-003, +9.44591811715E-003
+4.80190095048E+006, +2.41207828327E-003, +9.28055190409E-003
+5.05200100050E+006, +2.39787338185E-003, +9.77472931979E-003
+5.30210105053E+006, +2.32330694148E-003, +1.08630539063E-002
+5.55220110055E+006, +3.00417427394E-003, +1.13723532733E-002
+5.80230115058E+006, +3.16729385622E-003, +1.15527715589E-002
+6.05240120060E+006, +3.38223580863E-003, +1.18489226165E-002
+6.30250125063E+006, +3.77743384676E-003, +1.25026534441E-002
+6.55260130065E+006, +3.84311803115E-003, +1.23336142902E-002
+6.80270135068E+006, +4.33872650830E-003, +1.30300168484E-002
+7.05280140070E+006, +4.60244071135E-003, +1.32317192451E-002
+7.30290145073E+006, +4.99881165981E-003, +1.39433882687E-002
+7.55300150075E+006, +5.60907308330E-003, +1.44482088547E-002
+7.80310155078E+006, +5.49401561589E-003, +1.48990974057E-002
+8.05320160080E+006, +6.12278469293E-003, +1.54005981141E-002
+8.30330165083E+006, +6.27172390631E-003, +1.57133846168E-002
+8.55340170085E+006, +6.69388843569E-003, +1.59968533783E-002
+8.80350175088E+006, +7.02650836825E-003, +1.64517936170E-002
+9.05360180090E+006, +7.60172813067E-003, +1.68511508876E-002
+9.30370185093E+006, +7.85442891510E-003, +1.72116697215E-002
+9.55380190095E+006, +8.42189496430E-003, +1.75560960509E-002
+9.80390195098E+006, +8.77247714132E-003, +1.80070800999E-002
+1.00540020010E+007, +9.27126290224E-003, +1.84408738881E-002
+1.03041020510E+007, +9.67110027473E-003, +1.87837379167E-002
+1.05542021011E+007, +1.01883547208E-002, +1.91262276980E-002
+1.08043021511E+007, +1.05645663197E-002, +1.95754703610E-002
+1.10544022011E+007, +1.11418895251E-002, +1.98374440896E-002
+1.13045022511E+007, +1.16256909488E-002, +2.01058469190E-002
+1.15546023012E+007, +1.21053680187E-002, +2.04471649930E-002
+1.18047023512E+007, +1.26927618197E-002, +2.08514619635E-002
+1.20548024012E+007, +1.31703525713E-002, +2.11159863179E-002
+1.23049024512E+007, +1.38225366763E-002, +2.14171681870E-002
+1.25550025013E+007, +1.42441676487E-002, +2.17744787040E-002
+1.28051025513E+007, +1.48093119542E-002, +2.21705277165E-002
+1.30552026013E+007, +1.53637177897E-002, +2.23173257884E-002
+1.33053026513E+007, +1.59722857069E-002, +2.25792435253E-002
+1.35554027014E+007, +1.66052345732E-002, +2.29229078218E-002
+1.38055027514E+007, +1.72521856877E-002, +2.31457199854E-002
+1.40556028014E+007, +1.77978581015E-002, +2.33278209137E-002
+1.43057028514E+007, +1.83848417577E-002, +2.36155439088E-002
+1.45558029015E+007, +1.90494604868E-002, +2.38388540763E-002
+1.48059029515E+007, +1.95879462361E-002, +2.41009796876E-002
+1.50560030015E+007, +2.02594618459E-002, +2.43007638632E-002
+1.53061030515E+007, +2.09148493579E-002, +2.45292589537E-002
+1.55562031016E+007, +2.17019043718E-002, +2.48152313978E-002
+1.58063031516E+007, +2.23358117354E-002, +2.48676673693E-002
+1.60564032016E+007, +2.30706133278E-002, +2.50563533222E-002
+1.63065032516E+007, +2.37588353240E-002, +2.51841757291E-002
+1.65566033017E+007, +2.43763327233E-002, +2.53838212664E-002
+1.68067033517E+007, +2.51138180198E-002, +2.54805057971E-002
+1.70568034017E+007, +2.58445756357E-002, +2.55838885924E-002
+1.73069034517E+007, +2.65519170916E-002, +2.57427729766E-002
+1.75570035018E+007, +2.73459349087E-002, +2.57820318743E-002
+1.78071035518E+007, +2.81310251805E-002, +2.58860347339E-002
+1.80572036018E+007, +2.88727067273E-002, +2.61488018936E-002
+1.83073036518E+007, +2.96779005977E-002, +2.60918203166E-002
+1.85574037019E+007, +3.03557079879E-002, +2.61062218786E-002
+1.88075037519E+007, +3.11200107107E-002, +2.62528536807E-002
+1.90576038019E+007, +3.19821102183E-002, +2.62276572048E-002
+1.93077038519E+007, +3.27276741395E-002, +2.62759696211E-002
+1.95578039020E+007, +3.35455968860E-002, +2.63468249556E-002
+1.98079039520E+007, +3.43092296954E-002, +2.62631421963E-002
+2.00580040020E+007, +3.51932146890E-002, +2.61095937282E-002
+2.03081040520E+007, +3.60059108696E-002, +2.62551200336E-002
+2.05582041021E+007, +3.68818511571E-002, +2.62237949654E-002
+2.08083041521E+007, +3.76943788610E-002, +2.60449196173E-002
+2.10584042021E+007, +3.85486945410E-002, +2.60426276136E-002
+2.13085042521E+007, +3.94040434830E-002, +2.59165681930E-002
+2.15586043022E+007, +4.03188559298E-002, +2.57705244688E-002
+2.18087043522E+007, +4.11775129402E-002, +2.57229618875E-002
+2.20588044022E+007, +4.20691255340E-002, +2.55556373155E-002
+2.23089044522E+007, +4.29149239799E-002, +2.54080130702E-002
+2.25590045023E+007, +4.38441485365E-002, +2.52345075465E-002
+2.28091045523E+007, +4.46928467223E-002, +2.50388314008E-002
+2.30592046023E+007, +4.56224592887E-002, +2.48920682844E-002
+2.33093046523E+007, +4.65582159495E-002, +2.47922897733E-002
+2.35594047024E+007, +4.74393334289E-002, +2.44626767948E-002
+2.38095047524E+007, +4.84247758949E-002, +2.41295651536E-002
+2.40596048024E+007, +4.93083482326E-002, +2.39115241911E-002
+2.43097048524E+007, +5.03306910209E-002, +2.36896876101E-002
+2.45598049025E+007, +5.12698486311E-002, +2.33431274687E-002
+2.48099049525E+007, +5.21927412121E-002, +2.31055114924E-002
+2.50600050025E+007, +5.31505045343E-002, +2.28171095604E-002
+2.53101050525E+007, +5.41521892918E-002, +2.24031554861E-002
+2.55602051026E+007, +5.50528039615E-002, +2.20306293917E-002
+2.58103051526E+007, +5.59334352281E-002, +2.15592255841E-002
+2.60604052026E+007, +5.70773401907E-002, +2.12067075159E-002
+2.63105052526E+007, +5.81181167603E-002, +2.08728355228E-002
+2.65606053027E+007, +5.90810948224E-002, +2.04574650898E-002
+2.68107053527E+007, +5.99764500155E-002, +2.01064704856E-002
+2.70608054027E+007, +6.10746696998E-002, +1.94281191420E-002
+2.73109054527E+007, +6.20813702783E-002, +1.89910657000E-002
+2.75610055028E+007, +6.30840955830E-002, +1.84924234802E-002
+2.78111055528E+007, +6.40564014074E-002, +1.79071995902E-002
+2.80612056028E+007, +6.51241878287E-002, +1.74154009732E-002
+2.83113056528E+007, +6.62127539395E-002, +1.67999825152E-002
+2.85614057029E+007, +6.72544012271E-002, +1.62723006218E-002
+2.88115057529E+007, +6.82929871133E-002, +1.56728885284E-002
+2.90616058029E+007, +6.93012588039E-002, +1.49551578041E-002
+2.93117058529E+007, +7.03501118261E-002, +1.43660684553E-002
+2.95618059030E+007, +7.14092046338E-002, +1.36522300255E-002
+2.98119059530E+007, +7.25043909932E-002, +1.29143310109E-002
+3.00620060030E+007, +7.36116407441E-002, +1.22106187780E-002
+3.03121060530E+007, +7.46364049458E-002, +1.13468509474E-002
+3.05622061031E+007, +7.56335979514E-002, +1.06767730792E-002
+3.08123061531E+007, +7.67782002321E-002, +9.84661814177E-003
+3.10624062031E+007, +7.78291344341E-002, +9.01279393902E-003
+3.13125062531E+007, +7.89685941569E-002, +8.28405454790E-003
+3.15626063032E+007, +7.99903340398E-002, +7.27155916947E-003
+3.18127063532E+007, +8.11276552944E-002, +6.46395423307E-003
+3.20628064032E+007, +8.22174987298E-002, +5.45102213480E-003
+3.23129064532E+007, +8.33322422611E-002, +4.50459903217E-003
+3.25630065033E+007, +8.44151620752E-002, +3.46431974629E-003
+3.28131065533E+007, +8.54983312891E-002, +2.60082726433E-003
+3.30632066033E+007, +8.65267036505E-002, +1.50734120599E-003
+3.33133066533E+007, +8.76627946986E-002, +4.24762738109E-004
+3.35634067034E+007, +8.88741148348E-002, -5.54634621909E-004
+3.38135067534E+007, +8.99857299303E-002, -1.77898662606E-003
+3.40636068034E+007, +9.10797967898E-002, -2.97111961377E-003
+3.43137068534E+007, +9.22041649271E-002, -4.14365097309E-003
+3.45638069035E+007, +9.34057150499E-002, -5.24977768064E-003
+3.48139069535E+007, +9.44835018521E-002, -6.48377045203E-003
+3.50640070035E+007, +9.55903443503E-002, -7.75197420686E-003
+3.53141070535E+007, +9.66808582389E-002, -9.15478637499E-003
+3.55642071036E+007, +9.78483153893E-002, -1.05305184523E-002
+3.58143071536E+007, +9.90732023238E-002, -1.18024561026E-002
+3.60644072036E+007, +1.00148718380E-001, -1.32893103418E-002
+3.63145072536E+007, +1.01250039422E-001, -1.48127295948E-002
+3.65646073037E+007, +1.02450877239E-001, -1.63174853254E-002
+3.68147073537E+007, +1.03508589053E-001, -1.77481711212E-002
+3.70648074037E+007, +1.04745707696E-001, -1.93210300819E-002
+3.73149074537E+007, +1.05853995648E-001, -2.10084802646E-002
+3.75650075038E+007, +1.06960705495E-001, -2.26368748634E-002
+3.78151075538E+007, +1.08101661644E-001, -2.43200476801E-002
+3.80652076038E+007, +1.09277220720E-001, -2.60623825536E-002
+3.83153076538E+007, +1.10435573749E-001, -2.78104279949E-002
+3.85654077039E+007, +1.11519023935E-001, -2.95913208618E-002
+3.88155077539E+007, +1.12787260941E-001, -3.15104716324E-002
+3.90656078039E+007, +1.13950063661E-001, -3.33301885642E-002
+3.93157078539E+007, +1.15085605535E-001, -3.54099751475E-002
+3.95658079040E+007, +1.16144086157E-001, -3.74030632045E-002
+3.98159079540E+007, +1.17357451571E-001, -3.95021087933E-002
+4.00660080040E+007, +1.18504397573E-001, -4.16993763222E-002
+4.03161080540E+007, +1.19680381066E-001, -4.38631274885E-002
+4.05662081041E+007, +1.20837402741E-001, -4.60602910140E-002
+4.08163081541E+007, +1.21912386533E-001, -4.84215657083E-002
+4.10664082041E+007, +1.23150019951E-001, -5.07479375147E-002
+4.13165082541E+007, +1.24222621687E-001, -5.32768277246E-002
+4.15666083042E+007, +1.25398766618E-001, -5.57122082195E-002
+4.18167083542E+007, +1.26511402781E-001, -5.82966264138E-002
+4.20668084042E+007, +1.27750803202E-001, -6.09722641219E-002
+4.23169084542E+007, +1.28914147691E-001, -6.37315152583E-002
+4.25670085043E+007, +1.29972003244E-001, -6.64473759353E-002
+4.28171085543E+007, +1.31187051830E-001, -6.93593950508E-002
+4.30672086043E+007, +1.32305016442E-001, -7.23631061071E-002
+4.33173086543E+007, +1.33283879933E-001, -7.53474233391E-002
+4.35674087044E+007, +1.34517628773E-001, -7.85876305316E-002
+4.38175087544E+007, +1.35663268587E-001, -8.17110706114E-002
+4.40676088044E+007, +1.36716926645E-001, -8.50165130711E-002
+4.43177088544E+007, +1.37735585596E-001, -8.86427797489E-002
+4.45678089045E+007, +1.38949225762E-001, -9.20706744282E-002
+4.48179089545E+007, +1.40025562683E-001, -9.57627349490E-002
+4.50680090045E+007, +1.40993377770E-001, -9.95539324421E-002
+4.53181090545E+007, +1.42024233181E-001, -1.03446349457E-001
+4.55682091046E+007, +1.43042561580E-001, -1.07456277303E-001
+4.58183091546E+007, +1.44139135870E-001, -1.11629934534E-001
+4.60684092046E+007, +1.44986026216E-001, -1.15990419618E-001
+4.63185092546E+007, +1.45985246107E-001, -1.20397346406E-001
+4.65686093047E+007, +1.46962424571E-001, -1.25001739505E-001
+4.68187093547E+007, +1.47939147098E-001, -1.29880202545E-001
+4.70688094047E+007, +1.48815707906E-001, -1.34887812778E-001
+4.73189094547E+007, +1.49609118208E-001, -1.40121302992E-001
+4.75690095048E+007, +1.50392991566E-001, -1.45422738216E-001
+4.78191095548E+007, +1.51123423979E-001, -1.51150409124E-001
+4.80692096048E+007, +1.51891964452E-001, -1.56903338630E-001
+4.83193096548E+007, +1.52484770727E-001, -1.63057739234E-001
+4.85694097049E+007, +1.53053480145E-001, -1.69315005852E-001
+4.88195097549E+007, +1.53520966560E-001, -1.75919254833E-001
+4.90696098049E+007, +1.54018788436E-001, -1.82783950649E-001
+4.93197098549E+007, +1.54258676854E-001, -1.89953688573E-001
+4.95698099050E+007, +1.54503270917E-001, -1.97479738482E-001
+4.98199099550E+007, +1.54643086790E-001, -2.05278563715E-001
+5.00700100050E+007, +1.54400820178E-001, -2.13729707092E-001
+5.03201100550E+007, +1.54308944685E-001, -2.22312011316E-001
+5.05702101051E+007, +1.53860827896E-001, -2.31385927116E-001
+5.08203101551E+007, +1.53248232178E-001, -2.40966031221E-001
+5.10704102051E+007, +1.52447100350E-001, -2.51068059346E-001
+5.13205102551E+007, +1.51253039917E-001, -2.61641334643E-001
+5.15706103052E+007, +1.49642803348E-001, -2.72778050838E-001
+5.18207103552E+007, +1.47736279098E-001, -2.84537294023E-001
+5.20708104052E+007, +1.45438708279E-001, -2.97114131865E-001
+5.23209104552E+007, +1.42682464752E-001, -3.10259318665E-001
+5.25710105053E+007, +1.39232451639E-001, -3.24229437044E-001
+5.28211105553E+007, +1.35154763425E-001, -3.39014915094E-001
+5.30712106053E+007, +1.30214700931E-001, -3.54543257133E-001
+5.33213106553E+007, +1.24402658929E-001, -3.71153411401E-001
+5.35714107054E+007, +1.17414890494E-001, -3.88853818310E-001
+5.38215107554E+007, +1.09161830713E-001, -4.07418439522E-001
+5.40716108054E+007, +9.91916815980E-002, -4.27187621916E-001
+5.43217108554E+007, +8.76092427102E-002, -4.47843282983E-001
+5.45718109055E+007, +7.39476646714E-002, -4.69675895958E-001
+5.48219109555E+007, +5.77187327390E-002, -4.92618224680E-001
+5.50720110055E+007, +3.85595506873E-002, -5.16531531877E-001
+5.53221110555E+007, +1.59589067018E-002, -5.41198244599E-001
+5.55722111056E+007, -1.06294687258E-002, -5.66110987240E-001
+5.58223111556E+007, -4.19321473075E-002, -5.91304467846E-001
+5.60724112056E+007, -7.87590907877E-002, -6.15892494567E-001
+5.63225112556E+007, -1.21676534249E-001, -6.39184785538E-001
+5.65726113057E+007, -1.71008871442E-001, -6.59101543205E-001
+5.68227113557E+007, -2.27538183844E-001, -6.74880194884E-001
+5.70728114057E+007, -2.90885127480E-001, -6.83955642108E-001
+5.73229114557E+007, -3.60834706950E-001, -6.84442937821E-001
+5.75730115058E+007, -4.35880468608E-001, -6.73655637038E-001
+5.78231115558E+007, -5.13306584394E-001, -6.49031762772E-001
+5.80732116058E+007, -5.89686471233E-001, -6.08981072653E-001
+5.83233116558E+007, -6.60652511909E-001, -5.53255299222E-001
+5.85734117059E+007, -7.21588780085E-001, -4.83222967394E-001
+5.88235117559E+007, -7.68104081690E-001, -4.01762444041E-001
+5.90736118059E+007, -7.97821228892E-001, -3.13801517189E-001
+5.93237118559E+007, -8.09850084364E-001, -2.23891847120E-001
+5.95738119060E+007, -8.05282546895E-001, -1.37148006707E-001
+5.98239119560E+007, -7.86801963640E-001, -5.75031972810E-002
+6.00740120060E+007, -7.57664050514E-001, +1.32769722970E-002
+6.03241120560E+007, -7.20819668778E-001, +7.35136380176E-002
+6.05742121061E+007, -6.79629723982E-001, +1.23714991958E-001
+6.08243121561E+007, -6.36366237030E-001, +1.64075605243E-001
+6.10744122061E+007, -5.93054346048E-001, +1.96032673338E-001
+6.13245122561E+007, -5.50325755853E-001, +2.20400243698E-001
+6.15746123062E+007, -5.09843471613E-001, +2.39147753716E-001
+6.18247123562E+007, -4.71690406690E-001, +2.52215706854E-001
+6.20748124062E+007, -4.36061459330E-001, +2.61599096897E-001
+6.23249124562E+007, -4.02897873333E-001, +2.67016235946E-001
+6.25750125063E+007, -3.72609554700E-001, +2.70750307066E-001
+6.28251125563E+007, -3.44595615809E-001, +2.72144977494E-001
+6.30752126063E+007, -3.18759128101E-001, +2.71713420205E-001
+6.33253126563E+007, -2.95444596274E-001, +2.70097262604E-001
+6.35754127064E+007, -2.73635880979E-001, +2.67518250165E-001
+6.38255127564E+007, -2.53800466797E-001, +2.64548474425E-001
+6.40756128064E+007, -2.35630907195E-001, +2.60725372183E-001
+6.43257128564E+007, -2.19023633569E-001, +2.56333936496E-001
+6.45758129065E+007, -2.03373489477E-001, +2.52000424071E-001
+6.48259129565E+007, -1.89012113686E-001, +2.47541587176E-001
+6.50760130065E+007, -1.75853380175E-001, +2.42759933223E-001
+6.53261130565E+007, -1.63527901260E-001, +2.37831069033E-001
+6.55762131066E+007, -1.52175975255E-001, +2.32999507028E-001
+6.58263131566E+007, -1.41687349813E-001, +2.27994922625E-001
+6.60764132066E+007, -1.31850808960E-001, +2.23220930622E-001
+6.63265132566E+007, -1.22665587264E-001, +2.18244407877E-001
+6.65766133067E+007, -1.14180981931E-001, +2.13464642150E-001
+6.68267133567E+007, -1.06326453427E-001, +2.08752389895E-001
+6.70768134067E+007, -9.88574403251E-002, +2.04015240512E-001
+6.73269134567E+007, -9.19141294582E-002, +1.99445637200E-001
+6.75770135068E+007, -8.53376327306E-002, +1.95065192001E-001
+6.78271135568E+007, -7.93368912720E-002, +1.90614214279E-001
+6.80772136068E+007, -7.35534452087E-002, +1.86479748291E-001
+6.83273136568E+007, -6.81717776879E-002, +1.82240363715E-001
+6.85774137069E+007, -6.31947587214E-002, +1.78015090813E-001
+6.88275137569E+007, -5.83700705855E-002, +1.73993912042E-001
+6.90776138069E+007, -5.39472951420E-002, +1.70178228587E-001
+6.93277138569E+007, -4.97810065516E-002, +1.66309807055E-001
+6.95778139070E+007, -4.55131606433E-002, +1.62527019205E-001
+6.98279139570E+007, -4.18422617470E-002, +1.58932524134E-001
+7.00780140070E+007, -3.82879817362E-002, +1.55216778138E-001
+7.03281140570E+007, -3.49178735820E-002, +1.51827370187E-001
+7.05782141071E+007, -3.16718761960E-002, +1.48342254998E-001
+7.08283141571E+007, -2.87252321152E-002, +1.45121103237E-001
+7.10784142071E+007, -2.58208926949E-002, +1.41767670493E-001
+7.13285142571E+007, -2.31066643912E-002, +1.38723306302E-001
+7.15786143072E+007, -2.05236942887E-002, +1.35573978496E-001
+7.18287143572E+007, -1.81563313962E-002, +1.32529084313E-001
+7.20788144072E+007, -1.57905053410E-002, +1.29621939738E-001
+7.23289144572E+007, -1.34883109092E-002, +1.26726896009E-001
+7.25790145073E+007, -1.13609270355E-002, +1.23925858729E-001
+7.28291145573E+007, -9.37142431490E-003, +1.21140437919E-001
+7.30792146073E+007, -7.44012411529E-003, +1.18530632013E-001
+7.33293146573E+007, -5.63011153334E-003, +1.15837660420E-001
+7.35794147074E+007, -3.85133828655E-003, +1.13141654835E-001
+7.38295147574E+007, -2.29726592540E-003, +1.10548530074E-001
+7.40796148074E+007, -6.86102308881E-004, +1.08104703179E-001
+7.43297148574E+007, +7.01966184604E-004, +1.05614664270E-001
+7.45798149075E+007, +2.12987150723E-003, +1.03155259517E-001
+7.48299149575E+007, +3.49986988356E-003, +1.00774118766E-001
+7.50800150075E+007, +4.74952168036E-003, +9.85543843467E-002
+7.53301150575E+007, +5.95837551511E-003, +9.61562079105E-002
+7.55802151076E+007, +7.13374137787E-003, +9.39589188683E-002
+7.58303151576E+007, +8.23381519337E-003, +9.17742320321E-002
+7.60804152076E+007, +9.15651196551E-003, +8.96603297031E-002
+7.63305152576E+007, +1.00138581676E-002, +8.75000944099E-002
+7.65806153077E+007, +1.09593087444E-002, +8.54603051205E-002
+7.68307153577E+007, +1.18572934595E-002, +8.34256238332E-002
+7.70808154077E+007, +1.26488348498E-002, +8.14509493083E-002
+7.73309154577E+007, +1.33139231373E-002, +7.94484122494E-002
+7.75810155078E+007, +1.40888232189E-002, +7.76634066498E-002
+7.78311155578E+007, +1.46866035375E-002, +7.57002847540E-002
+7.80812156078E+007, +1.54416114315E-002, +7.38061399683E-002
+7.83313156578E+007, +1.59073256367E-002, +7.20847375412E-002
+7.85814157079E+007, +1.63957979716E-002, +7.03893331328E-002
+7.88315157579E+007, +1.69493797588E-002, +6.86020630818E-002
+7.90816158079E+007, +1.73463923948E-002, +6.69347492695E-002
+7.93317158579E+007, +1.79604716408E-002, +6.52689401355E-002
+7.95818159080E+007, +1.83304876937E-002, +6.36009031070E-002
+7.98319159580E+007, +1.85993156938E-002, +6.21422808268E-002
+8.00820160080E+007, +1.89670488639E-002, +6.04587278803E-002
