"# Channel 1"
"# Trace 1"
Frequency, Formatted Data, Formatted Data
+5.00000000000E+004, +1.99432222454E-002, -2.85652714481E-003
+3.00100050025E+005, +2.68371377390E-004, +9.26608923410E-004
+5.50200100050E+005, -1.70071989043E-004, +1.40406280397E-003
+8.00300150075E+005, +2.26765045973E-004, +1.86120054496E-003
+1.05040020010E+006, +3.48164438375E-004, +2.05244822878E-003
+1.30050025013E+006, +4.03224713326E-004, +2.54701073707E-003
+1.55060030015E+006, +4.21289801211E-004, +3.24062212324E-003
+1.80070035018E+006, +6.93712561970E-004, +3.63238530239E-003
+2.05080040020E+006, +6.75579138433E-004, +4.18837839660E-003
+2.30090045023E+006, +5.11924260552E-004, +4.34195138319E-003
+2.55100050025E+006, +5.30584956029E-004, +5.26880754785E-003
+2.80110055028E+006, +1.14068889842E-003, +5.46328809390E-003
+3.05120060030E+006, +1.69405206955E-003, +6.01847876103E-003
+3.30130065033E+006, +1.00910649763E-003, +6.47922925585E-003
+3.55140070035E+006, +1.55715486504E-003, +7.18394819060E-003
+3.80150075038E+006, +1.59667880133E-003, +7.63732437591E-003
+4.05160080040E+006, +1.49339482311E-003, +7.80759495553E-003
+4.30170085043E+006, +1.81879296478E-003, +8.53684372637E-003
+4.55180090045E+006, +2.24146789269E-003, +9.39810582150E-003
+4.80190095048E+006, +2.13952843556E-003, +9.73585206501E-003
+5.05200100050E+006, +2.37220118540E-003, +1.00636066490E-002
+5.30210105053E+006, +2.84989043554E-003, +1.05529317798E-002
+5.55220110055E+006, +3.29977985312E-003, +1.08499624701E-002
+5.80230115058E+006, +3.09621439644E-003, +1.10870426953E-002
+6.05240120060E+006, +3.51978152968E-003, +1.15789354448E-002
+6.30250125063E+006, +3.83018820186E-003, +1.21126094746E-002
+6.55260130065E+006, +4.06977804764E-003, +1.27836682621E-002
+6.80270135068E+006, +4.36281232970E-003, +1.28194732666E-002
+7.05280140070E+006, +4.16345230571E-003, +1.31545913244E-002
+7.30290145073E+006, +4.73263072124E-003, +1.38094969850E-002
+7.55300150075E+006, +5.72463213756E-003, +1.41339957336E-002
+7.80310155078E+006, +5.96736471124E-003, +1.48614038029E-002
+8.05320160080E+006, +6.18364570263E-003, +1.54239212920E-002
+8.30330165083E+006, +6.68951104705E-003, +1.57852682688E-002
+8.55340170085E+006, +6.79976560148E-003, +1.61622007107E-002
+8.80350175088E+006, +7.27126157026E-003, +1.65054653002E-002
+9.05360180090E+006, +7.62394154944E-003, +1.70226016290E-002
+9.30370185093E+006, +8.00671142290E-003, +1.72958225423E-002
+9.55380190095E+006, +8.33990998117E-003, +1.76797131103E-002
+9.80390195098E+006, +8.85134191082E-003, +1.81497399654E-002
+1.00540020010E+007, +9.36947022245E-003, +1.85102921243E-002
+1.03041020510E+007, +9.86661569481E-003, +1.87955348639E-002
+1.05542021011E+007, +1.02161963655E-002, +1.93169958587E-002
+1.08043021511E+007, +1.07190822686E-002, +1.95659055004E-002
+1.10544022011E+007, +1.11646656764E-002, +1.99513457238E-002
+1.13045022511E+007, +1.17634402458E-002, +2.03384926411E-002
+1.15546023012E+007, +1.21577573887E-002, +2.05264416397E-002
+1.18047023512E+007, +1.27564193785E-002, +2.08817215040E-002
+1.20548024012E+007, +1.32334491998E-002, +2.12133266913E-002
+1.23049024512E+007, +1.38262162530E-002, +2.14988047683E-002
+1.25550025013E+007, +1.43917729200E-002, +2.18590064618E-002
+1.28051025513E+007, +1.49785637341E-002, +2.22379356413E-002
+1.30552026013E+007, +1.55272902830E-002, +2.26000357217E-002
+1.33053026513E+007, +1.60882970049E-002, +2.27101451035E-002
+1.35554027014E+007, +1.66084976030E-002, +2.30307525807E-002
+1.38055027514E+007, +1.73646012799E-002, +2.32740038735E-002
+1.40556028014E+007, +1.78464012409E-002, +2.35545182539E-002
+1.43057028514E+007, +1.85340074272E-002, +2.38800806618E-002
+1.45558029015E+007, +1.92008001953E-002, +2.39280917803E-002
+1.48059029515E+007, +1.98780510468E-002, +2.41799525495E-002
+1.50560030015E+007, +2.05077899078E-002, +2.44286552438E-002
+1.53061030515E+007, +2.11087670299E-002, +2.46771800260E-002
+1.55562031016E+007, +2.18458970994E-002, +2.48129946863E-002
+1.58063031516E+007, +2.24403310455E-002, +2.50659905337E-002
+1.60564032016E+007, +2.31866924818E-002, +2.51941666351E-002
+1.63065032516E+007, +2.37703004063E-002, +2.53481992772E-002
+1.65566033017E+007, +2.44784854867E-002, +2.56591089388E-002
+1.68067033517E+007, +2.53283536683E-002, +2.56729340530E-002
+1.70568034017E+007, +2.60308828019E-002, +2.59191206906E-002
+1.73069034517E+007, +2.68062695923E-002, +2.58804040049E-002
+1.75570035018E+007, +2.75945881253E-002, +2.59851594372E-002
+1.78071035518E+007, +2.82238227991E-002, +2.61296573207E-002
+1.80572036018E+007, +2.90762711425E-002, +2.61768798590E-002
+1.83073036518E+007, +2.97928130766E-002, +2.62592520768E-002
+1.85574037019E+007, +3.05725111749E-002, +2.63331352204E-002
+1.88075037519E+007, +3.13931558191E-002, +2.63756188321E-002
+1.90576038019E+007, +3.21693614058E-002, +2.63177935238E-002
+1.93077038519E+007, +3.29363038016E-002, +2.63681371430E-002
+1.95578039020E+007, +3.37701975713E-002, +2.64293761301E-002
+1.98079039520E+007, +3.46176777805E-002, +2.64861411290E-002
+2.00580040020E+007, +3.54140984870E-002, +2.65079417589E-002
+2.03081040520E+007, +3.61636252426E-002, +2.63569757723E-002
+2.05582041021E+007, +3.70868960265E-002, +2.63577633326E-002
+2.08083041521E+007, +3.79329961663E-002, +2.63007564335E-002
+2.10584042021E+007, +3.89170572036E-002, +2.61885847797E-002
+2.13085042521E+007, +3.96224762328E-002, +2.61129044431E-002
+2.15586043022E+007, +4.05483416386E-002, +2.59673597055E-002
+2.18087043522E+007, +4.14709076092E-002, +2.58823425165E-002
+2.20588044022E+007, +4.23335575209E-002, +2.57541258522E-002
+2.23089044522E+007, +4.31949683688E-002, +2.55912049311E-002
+2.25590045023E+007, +4.41133174807E-002, +2.53417645784E-002
+2.28091045523E+007, +4.49535775638E-002, +2.52470489818E-002
+2.30592046023E+007, +4.58962622427E-002, +2.50817169977E-002
+2.33093046523E+007, +4.68959647815E-002, +2.48456382101E-002
+2.35594047024E+007, +4.77047572473E-002, +2.46532145461E-002
+2.38095047524E+007, +4.87021202772E-002, +2.43758259347E-002
+2.40596048024E+007, +4.95525192770E-002, +2.40661452083E-002
+2.43097048524E+007, +5.05866116990E-002, +2.38477677758E-002
+2.45598049025E+007, +5.15651338173E-002, +2.35516136953E-002
+2.48099049525E+007, +5.25262944134E-002, +2.32390213250E-002
+2.50600050025E+007, +5.34270617191E-002, +2.28859816670E-002
+2.53101050525E+007, +5.44732915812E-002, +2.25934203086E-002
+2.55602051026E+007, +5.53422482741E-002, +2.21879617885E-002
+2.58103051526E+007, +5.64153018777E-002, +2.19372259057E-002
+2.60604052026E+007, +5.73940531479E-002, +2.15451320067E-002
+2.63105052526E+007, +5.84628104520E-002, +2.10667727467E-002
+2.65606053027E+007, +5.93265834021E-002, +2.06412802935E-002
+2.68107053527E+007, +6.04237439072E-002, +2.02130123173E-002
+2.70608054027E+007, +6.14583224428E-002, +1.97081595564E-002
+2.73109054527E+007, +6.24117289583E-002, +1.91080889689E-002
+2.75610055028E+007, +6.34107414605E-002, +1.87070020631E-002
+2.78111055528E+007, +6.44605479258E-002, +1.81857072316E-002
+2.80612056028E+007, +6.55969850967E-002, +1.75398365443E-002
+2.83113056528E+007, +6.65761683421E-002, +1.70138090477E-002
+2.85614057029E+007, +6.76331725897E-002, +1.64301215862E-002
+2.88115057529E+007, +6.86564551786E-002, +1.57875816557E-002
+2.90616058029E+007, +6.96771223867E-002, +1.51350642201E-002
+2.93117058529E+007, +7.07633121515E-002, +1.44426784044E-002
+2.95618059030E+007, +7.18056959655E-002, +1.37983520130E-002
+2.98119059530E+007, +7.29749641001E-002, +1.31296273523E-002
+3.00620060030E+007, +7.39774413806E-002, +1.23536811494E-002
+3.03121060530E+007, +7.50762584582E-002, +1.16620293963E-002
+3.05622061031E+007, +7.61130107349E-002, +1.08793008628E-002
+3.08123061531E+007, +7.72245890441E-002, +1.01298444243E-002
+3.10624062031E+007, +7.83038804815E-002, +9.23696893445E-003
+3.13125062531E+007, +7.94320278282E-002, +8.31233992173E-003
+3.15626063032E+007, +8.05216351457E-002, +7.52103303282E-003
+3.18127063532E+007, +8.15143028018E-002, +6.60685848734E-003
+3.20628064032E+007, +8.25740053600E-002, +5.67279540920E-003
+3.23129064532E+007, +8.37709796022E-002, +4.64663065869E-003
+3.25630065033E+007, +8.49103655814E-002, +3.62727810744E-003
+3.28131065533E+007, +8.59921791985E-002, +2.70955499592E-003
+3.30632066033E+007, +8.70837822576E-002, +1.60263059909E-003
+3.33133066533E+007, +8.81897727527E-002, +6.10452269301E-004
+3.35634067034E+007, +8.93503745803E-002, -5.74398129060E-004
+3.38135067534E+007, +9.04288196233E-002, -1.64322274159E-003
+3.40636068034E+007, +9.15545434658E-002, -2.80685878270E-003
+3.43137068534E+007, +9.27286432757E-002, -3.91963446812E-003
+3.45638069035E+007, +9.38051925990E-002, -5.09135999392E-003
+3.48139069535E+007, +9.48349081999E-002, -6.50420298484E-003
+3.50640070035E+007, +9.60680675460E-002, -7.68366947474E-003
+3.53141070535E+007, +9.72209451701E-002, -9.03803099233E-003
+3.55642071036E+007, +9.82871390542E-002, -1.03836982799E-002
+3.58143071536E+007, +9.94977131486E-002, -1.16544320377E-002
+3.60644072036E+007, +1.00707739807E-001, -1.31534345517E-002
+3.63145072536E+007, +1.01728182382E-001, -1.46191571585E-002
+3.65646073037E+007, +1.02897979488E-001, -1.60918394443E-002
+3.68147073537E+007, +1.04116252118E-001, -1.76652486788E-002
+3.70648074037E+007, +1.05225489673E-001, -1.92135449738E-002
+3.73149074537E+007, +1.06442772988E-001, -2.08435609077E-002
+3.75650075038E+007, +1.07473706192E-001, -2.24358031754E-002
+3.78151075538E+007, +1.08816073542E-001, -2.41350653721E-002
+3.80652076038E+007, +1.09747512690E-001, -2.59459390384E-002
+3.83153076538E+007, +1.10923326374E-001, -2.77004616403E-002
+3.85654077039E+007, +1.12116078289E-001, -2.95863006413E-002
+3.88155077539E+007, +1.13299294004E-001, -3.13989241750E-002
+3.90656078039E+007, +1.14438615464E-001, -3.32779205646E-002
+3.93157078539E+007, +1.15581548806E-001, -3.52636512425E-002
+3.95658079040E+007, +1.16710932499E-001, -3.72834215790E-002
+3.98159079540E+007, +1.17825788374E-001, -3.92985479519E-002
+4.00660080040E+007, +1.19015569892E-001, -4.15343235366E-002
+4.03161080540E+007, +1.20087153416E-001, -4.36556830443E-002
+4.05662081041E+007, +1.21273559366E-001, -4.58599962236E-002
+4.08163081541E+007, +1.22435477192E-001, -4.83292034160E-002
+4.10664082041E+007, +1.23566701081E-001, -5.05440431195E-002
+4.13165082541E+007, +1.24759636636E-001, -5.30265219253E-002
+4.15666083042E+007, +1.25834046243E-001, -5.54014236289E-002
+4.18167083542E+007, +1.26982017539E-001, -5.80000927245E-002
+4.20668084042E+007, +1.28152349013E-001, -6.06163441889E-002
+4.23169084542E+007, +1.29195238304E-001, -6.34271068428E-002
+4.25670085043E+007, +1.30391203697E-001, -6.62475365582E-002
+4.28171085543E+007, +1.31443198950E-001, -6.90612214811E-002
+4.30672086043E+007, +1.32486901051E-001, -7.19413862558E-002
+4.33173086543E+007, +1.33714603829E-001, -7.49204125809E-002
+4.35674087044E+007, +1.34784657696E-001, -7.81333478843E-002
+4.38175087544E+007, +1.35808589880E-001, -8.12999455295E-002
+4.40676088044E+007, +1.37037668658E-001, -8.46992367396E-002
+4.43177088544E+007, +1.38003111160E-001, -8.80402905310E-002
+4.45678089045E+007, +1.39098091684E-001, -9.15062703543E-002
+4.48179089545E+007, +1.40130301799E-001, -9.51813977577E-002
+4.50680090045E+007, +1.41093324851E-001, -9.89273555244E-002
+4.53181090545E+007, +1.42176405065E-001, -1.02762859599E-001
+4.55682091046E+007, +1.43207008449E-001, -1.06782290585E-001
+4.58183091546E+007, +1.44091707130E-001, -1.10809384972E-001
+4.60684092046E+007, +1.45107629315E-001, -1.15097433919E-001
+4.63185092546E+007, +1.46069214321E-001, -1.19454630449E-001
+4.65686093047E+007, +1.46979261680E-001, -1.24072034919E-001
+4.68187093547E+007, +1.47949868265E-001, -1.28763783148E-001
+4.70688094047E+007, +1.48653626560E-001, -1.33674050219E-001
+4.73189094547E+007, +1.49435378100E-001, -1.38710177676E-001
+4.75690095048E+007, +1.50252476383E-001, -1.43891373863E-001
+4.78191095548E+007, +1.51010443426E-001, -1.49401994494E-001
+4.80692096048E+007, +1.51623983259E-001, -1.55150747020E-001
+4.83193096548E+007, +1.52285116015E-001, -1.60992406599E-001
+4.85694097049E+007, +1.52735315452E-001, -1.67085866950E-001
+4.88195097549E+007, +1.53384271928E-001, -1.73550500534E-001
+4.90696098049E+007, +1.53794442406E-001, -1.80194278160E-001
+4.93197098549E+007, +1.53928178655E-001, -1.87142121713E-001
+4.95698099050E+007, +1.54243495240E-001, -1.94410478512E-001
+4.98199099550E+007, +1.54293868567E-001, -2.02028583463E-001
+5.00700100050E+007, +1.54193726542E-001, -2.09947472840E-001
+5.03201100550E+007, +1.53816936790E-001, -2.18218257928E-001
+5.05702101051E+007, +1.53587611955E-001, -2.26885939618E-001
+5.08203101551E+007, +1.53071271587E-001, -2.36045604530E-001
+5.10704102051E+007, +1.52122953396E-001, -2.45521038844E-001
+5.13205102551E+007, +1.51059831293E-001, -2.55735473015E-001
+5.15706103052E+007, +1.49721971389E-001, -2.66416707831E-001
+5.18207103552E+007, +1.47949848170E-001, -2.77461509473E-001
+5.20708104052E+007, +1.45774351324E-001, -2.89183396421E-001
+5.23209104552E+007, +1.43360580449E-001, -3.01562117082E-001
+5.25710105053E+007, +1.40213078828E-001, -3.14624914166E-001
+5.28211105553E+007, +1.36773080871E-001, -3.28373876697E-001
+5.30712106053E+007, +1.32319147781E-001, -3.43062149141E-001
+5.33213106553E+007, +1.27207146827E-001, -3.58313380745E-001
+5.35714107054E+007, +1.21124815185E-001, -3.74797652903E-001
+5.38215107554E+007, +1.14023378408E-001, -3.91970552240E-001
+5.40716108054E+007, +1.05385372464E-001, -4.10052226582E-001
+5.43217108554E+007, +9.54840586603E-002, -4.29381654718E-001
+5.45718109055E+007, +8.37812088941E-002, -4.49419287265E-001
+5.48219109555E+007, +6.99825890846E-002, -4.70701173276E-001
+5.50720110055E+007, +5.39009038060E-002, -4.92682242546E-001
+5.53221110555E+007, +3.50829324740E-002, -5.15735618417E-001
+5.55722111056E+007, +1.27560945994E-002, -5.39583085741E-001
+5.58223111556E+007, -1.32617771064E-002, -5.63541413455E-001
+5.60724112056E+007, -4.33943177660E-002, -5.87825124173E-001
+5.63225112556E+007, -7.86943874207E-002, -6.11149959041E-001
+5.65726113057E+007, -1.19570087825E-001, -6.32963711102E-001
+5.68227113557E+007, -1.66586615260E-001, -6.52786925171E-001
+5.70728114057E+007, -2.20024723434E-001, -6.68326395525E-001
+5.73229114557E+007, -2.79839055667E-001, -6.78415406823E-001
+5.75730115058E+007, -3.46282509186E-001, -6.80202943103E-001
+5.78231115558E+007, -4.17346121161E-001, -6.72568997838E-001
+5.80732116058E+007, -4.91424640705E-001, -6.52244666786E-001
+5.83233116558E+007, -5.65751159979E-001, -6.18385324178E-001
+5.85734117059E+007, -6.36344634290E-001, -5.70027600434E-001
+5.88235117559E+007, -6.98985216517E-001, -5.06958580655E-001
+5.90736118059E+007, -7.50159272254E-001, -4.32390912286E-001
+5.93237118559E+007, -7.85994072523E-001, -3.49570612073E-001
+5.95738119060E+007, -8.05533192469E-001, -2.63220462336E-001
+5.98239119560E+007, -8.09168549047E-001, -1.77389072253E-001
+6.00740120060E+007, -7.98273593074E-001, -9.63210539437E-002
+6.03241120560E+007, -7.75702504514E-001, -2.27276662035E-002
+6.05742121061E+007, -7.44013381772E-001, +4.17912590516E-002
+6.08243121561E+007, -7.06732395380E-001, +9.69437320154E-002
+6.10744122061E+007, -6.65802790325E-001, +1.42361954675E-001
+6.13245122561E+007, -6.23661033687E-001, +1.78849674598E-001
+6.15746123062E+007, -5.81503740393E-001, +2.07870847121E-001
+6.18247123562E+007, -5.40678688875E-001, +2.30519384598E-001
+6.20748124062E+007, -5.01644925595E-001, +2.47121791366E-001
+6.23249124562E+007, -4.64825938304E-001, +2.59118658419E-001
+6.25750125063E+007, -4.30657226958E-001, +2.67607731915E-001
+6.28251125563E+007, -3.98692844795E-001, +2.72941863987E-001
+6.30752126063E+007, -3.69092544641E-001, +2.75964737104E-001
+6.33253126563E+007, -3.41881821640E-001, +2.77154192773E-001
+6.35754127064E+007, -3.16999721605E-001, +2.76601708062E-001
+6.38255127564E+007, -2.93859320426E-001, +2.75073796797E-001
+6.40756128064E+007, -2.72722084596E-001, +2.72526841871E-001
+6.43257128564E+007, -2.53295409177E-001, +2.69651337100E-001
+6.45758129065E+007, -2.35184520165E-001, +2.65727220955E-001
+6.48259129565E+007, -2.18775728479E-001, +2.61708809834E-001
+6.50760130065E+007, -2.03303807677E-001, +2.57264007207E-001
+6.53261130565E+007, -1.89093079208E-001, +2.52701699988E-001
+6.55762131066E+007, -1.75821108472E-001, +2.48047485388E-001
+6.58263131566E+007, -1.63753953064E-001, +2.43127464876E-001
+6.60764132066E+007, -1.52479073236E-001, +2.38244469585E-001
+6.63265132566E+007, -1.41883305264E-001, +2.33341130556E-001
+6.65766133067E+007, -1.32159295870E-001, +2.28364275048E-001
+6.68267133567E+007, -1.23047486830E-001, +2.23543719450E-001
+6.70768134067E+007, -1.14658465938E-001, +2.18806291725E-001
+6.73269134567E+007, -1.06577590660E-001, +2.14076580923E-001
+6.75770135068E+007, -9.90995954242E-002, +2.09334683962E-001
+6.78271135568E+007, -9.21477587506E-002, +2.04768252168E-001
+6.80772136068E+007, -8.56335255406E-002, +2.00339182415E-001
+6.83273136568E+007, -7.95223288273E-002, +1.95891116055E-001
+6.85774137069E+007, -7.35787527205E-002, +1.91488925785E-001
+6.88275137569E+007, -6.81780933133E-002, +1.87358912647E-001
+6.90776138069E+007, -6.30526986740E-002, +1.83186293026E-001
+6.93277138569E+007, -5.83404471851E-002, +1.79101582455E-001
+6.95778139070E+007, -5.37013362941E-002, +1.75060163461E-001
+6.98279139570E+007, -4.95255933599E-002, +1.71241676184E-001
+7.00780140070E+007, -4.54866565949E-002, +1.67386696783E-001
+7.03281140570E+007, -4.17453501543E-002, +1.63646517917E-001
+7.05782141071E+007, -3.81671986931E-002, +1.60053063674E-001
+7.08283141571E+007, -3.47582460373E-002, +1.56578965893E-001
+7.10784142071E+007, -3.15474591529E-002, +1.53046553204E-001
+7.13285142571E+007, -2.84908245371E-002, +1.49760459101E-001
+7.15786143072E+007, -2.56521332010E-002, +1.46579431072E-001
+7.18287143572E+007, -2.29662714556E-002, +1.43340641146E-001
+7.20788144072E+007, -2.02725654739E-002, +1.40232033894E-001
+7.23289144572E+007, -1.77742680088E-002, +1.37355401430E-001
+7.25790145073E+007, -1.53607358809E-002, +1.34325782292E-001
+7.28291145573E+007, -1.31860826160E-002, +1.31497552125E-001
+7.30792146073E+007, -1.09309677631E-002, +1.28581794304E-001
+7.33293146573E+007, -8.86106497819E-003, +1.25749822367E-001
+7.35794147074E+007, -6.96343937716E-003, +1.23028994338E-001
+7.38295147574E+007, -5.00359044281E-003, +1.20319943694E-001
+7.40796148074E+007, -3.37806848259E-003, +1.17658926995E-001
+7.43297148574E+007, -1.54933327614E-003, +1.15111949899E-001
+7.45798149075E+007, +5.45789207270E-005, +1.12620798198E-001
+7.48299149575E+007, +1.55279977764E-003, +1.10080588779E-001
+7.50800150075E+007, +3.05542640601E-003, +1.07721844257E-001
+7.53301150575E+007, +4.36769515701E-003, +1.05301368617E-001
+7.55802151076E+007, +5.64027619336E-003, +1.02842776078E-001
+7.58303151576E+007, +6.89614888568E-003, +1.00718119009E-001
+7.60804152076E+007, +8.10411912029E-003, +9.83781619446E-002
+7.63305152576E+007, +9.24309973599E-003, +9.61508585661E-002
+7.65806153077E+007, +1.02839285841E-002, +9.38938661280E-002
+7.68307153577E+007, +1.12445792987E-002, +9.17603722875E-002
+7.70808154077E+007, +1.23058602784E-002, +8.96692967745E-002
+7.73309154577E+007, +1.30838308961E-002, +8.75950509259E-002
+7.75810155078E+007, +1.40182509760E-002, +8.54517489383E-002
+7.78311155578E+007, +1.46951818954E-002, +8.35102928719E-002
+7.80812156078E+007, +1.55408305298E-002, +8.16272827745E-002
+7.83313156578E+007, +1.61621121419E-002, +7.97382447211E-002
+7.85814157079E+007, +1.67737855316E-002, +7.76594237177E-002
+7.88315157579E+007, +1.73328345744E-002, +7.59938202469E-002
+7.90816158079E+007, +1.79134859994E-002, +7.41381160916E-002
+7.93317158579E+007, +1.85038893487E-002, +7.23155574161E-002
+7.95818159080E+007, +1.89043018798E-002, +7.06115395397E-002
+7.98319159580E+007, +1.94200130069E-002, +6.89236366464E-002
+8.00820160080E+007, +1.98630795920E-002, +6.72414046204E-002
