"# Channel 1"
"# Trace 1"
Frequency, Formatted Data, Formatted Data
+5.00000000000E+004, +5.19915095667E+001, -8.02155560511E-002
+3.00100050025E+005, +5.00244486376E+001, +3.33638580344E-002
+5.50200100050E+005, +5.00014910737E+001, +1.11557916739E-001
+8.00300150075E+005, +5.00179258771E+001, +9.55708116175E-002
+1.05040020010E+006, +5.00341287432E+001, +1.53904027004E-001
+1.30050025013E+006, +5.00368907748E+001, +2.83617959940E-001
+1.55060030015E+006, +5.00652475892E+001, +2.27340104641E-001
+1.80070035018E+006, +5.00714863207E+001, +2.79503548029E-001
+2.05080040020E+006, +5.00830963287E+001, +3.09773145791E-001
+2.30090045023E+006, +5.00612374037E+001, +3.76821945941E-001
+2.55100050025E+006, +5.00829804408E+001, +4.16100861132E-001
+2.80110055028E+006, +5.01200458960E+001, +4.35883118455E-001
+3.05120060030E+006, +5.01464808308E+001, +4.75701486461E-001
+3.30130065033E+006, +5.01356992659E+001, +5.19426342704E-001
+3.55140070035E+006, +5.01020196122E+001, +5.56750052771E-001
+3.80150075038E+006, +5.01356021759E+001, +6.58075038145E-001
+4.05160080040E+006, +5.01539655447E+001, +6.03150298435E-001
+4.30170085043E+006, +5.02316644574E+001, +6.71767028500E-001
+4.55180090045E+006, +5.01738228480E+001, +7.23673078928E-001
+4.80190095048E+006, +5.02228212284E+001, +7.75280558443E-001
+5.05200100050E+006, +5.02466404702E+001, +8.26624021365E-001
+5.30210105053E+006, +5.02226108666E+001, +8.52110458876E-001
+5.55220110055E+006, +5.02835507188E+001, +9.02192429643E-001
+5.80230115058E+006, +5.02447305601E+001, +9.25005169203E-001
+6.05240120060E+006, +5.03111485288E+001, +9.72556119007E-001
+6.30250125063E+006, +5.03547595319E+001, +9.85148050733E-001
+6.55260130065E+006, +5.03400991578E+001, +1.00832636332E+000
+6.80270135068E+006, +5.03512201811E+001, +1.10725871438E+000
+7.05280140070E+006, +5.04073749685E+001, +1.11880189339E+000
+7.30290145073E+006, +5.04067886225E+001, +1.14846956477E+000
+7.55300150075E+006, +5.04484495397E+001, +1.20473695486E+000
+7.80310155078E+006, +5.04687619051E+001, +1.22138094834E+000
+8.05320160080E+006, +5.05199193519E+001, +1.29829011584E+000
+8.30330165083E+006, +5.05232458072E+001, +1.28740374777E+000
+8.55340170085E+006, +5.05690282507E+001, +1.32520018688E+000
+8.80350175088E+006, +5.05928005174E+001, +1.36747853263E+000
+9.05360180090E+006, +5.06388811576E+001, +1.40634642038E+000
+9.30370185093E+006, +5.06626358174E+001, +1.43373411056E+000
+9.55380190095E+006, +5.07051489676E+001, +1.47328717242E+000
+9.80390195098E+006, +5.07393056510E+001, +1.48824774762E+000
+1.00540020010E+007, +5.07754172816E+001, +1.52537460398E+000
+1.03041020510E+007, +5.07971807711E+001, +1.56110358248E+000
+1.05542021011E+007, +5.08500324488E+001, +1.58394315760E+000
+1.08043021511E+007, +5.08843342179E+001, +1.62950937114E+000
+1.10544022011E+007, +5.09353486164E+001, +1.64543726558E+000
+1.13045022511E+007, +5.09643149163E+001, +1.68446485328E+000
+1.15546023012E+007, +5.10123423694E+001, +1.71506229749E+000
+1.18047023512E+007, +5.10464289851E+001, +1.73798915260E+000
+1.20548024012E+007, +5.10959728543E+001, +1.76815559721E+000
+1.23049024512E+007, +5.11371407419E+001, +1.79686142419E+000
+1.25550025013E+007, +5.11888200267E+001, +1.80771881026E+000
+1.28051025513E+007, +5.12310090825E+001, +1.84093111368E+000
+1.30552026013E+007, +5.12692920887E+001, +1.87763885201E+000
+1.33053026513E+007, +5.13209497690E+001, +1.89002236271E+000
+1.35554027014E+007, +5.13640727091E+001, +1.91705938969E+000
+1.38055027514E+007, +5.14301112672E+001, +1.94850056574E+000
+1.40556028014E+007, +5.14679227822E+001, +1.96836171894E+000
+1.43057028514E+007, +5.15209706844E+001, +1.98679204656E+000
+1.45558029015E+007, +5.15774132740E+001, +2.01099082553E+000
+1.48059029515E+007, +5.16297520839E+001, +2.02675998012E+000
+1.50560030015E+007, +5.16657724770E+001, +2.05590674158E+000
+1.53061030515E+007, +5.17348524176E+001, +2.07385406255E+000
+1.55562031016E+007, +5.17770983484E+001, +2.08274172889E+000
+1.58063031516E+007, +5.18538278208E+001, +2.11262894755E+000
+1.60564032016E+007, +5.18998645675E+001, +2.13300713977E+000
+1.63065032516E+007, +5.19672274085E+001, +2.13766210563E+000
+1.65566033017E+007, +5.20087732463E+001, +2.16170371343E+000
+1.68067033517E+007, +5.20910290662E+001, +2.16485242458E+000
+1.70568034017E+007, +5.21498741437E+001, +2.18250020396E+000
+1.73069034517E+007, +5.21998014386E+001, +2.20885624722E+000
+1.75570035018E+007, +5.22641367416E+001, +2.20403904715E+000
+1.78071035518E+007, +5.23297029406E+001, +2.22530371267E+000
+1.80572036018E+007, +5.23933317788E+001, +2.21809078269E+000
+1.83073036518E+007, +5.24549726380E+001, +2.22693937207E+000
+1.85574037019E+007, +5.25218052251E+001, +2.23786694367E+000
+1.88075037519E+007, +5.25897842778E+001, +2.24423803736E+000
+1.90576038019E+007, +5.26635073279E+001, +2.24317948389E+000
+1.93077038519E+007, +5.27300054638E+001, +2.26154642391E+000
+1.95578039020E+007, +5.27967602649E+001, +2.25921664730E+000
+1.98079039520E+007, +5.28544342447E+001, +2.26013203814E+000
+2.00580040020E+007, +5.29356275962E+001, +2.26203996222E+000
+2.03081040520E+007, +5.29994342286E+001, +2.25679518010E+000
+2.05582041021E+007, +5.30789106288E+001, +2.26181022960E+000
+2.08083041521E+007, +5.31448270868E+001, +2.25329468502E+000
+2.10584042021E+007, +5.32215171613E+001, +2.24977951794E+000
+2.13085042521E+007, +5.32987174722E+001, +2.24556140973E+000
+2.15586043022E+007, +5.33657172382E+001, +2.23540082003E+000
+2.18087043522E+007, +5.34482800313E+001, +2.23076276113E+000
+2.20588044022E+007, +5.35173681893E+001, +2.21919440173E+000
+2.23089044522E+007, +5.36007585621E+001, +2.20712227556E+000
+2.25590045023E+007, +5.36784096816E+001, +2.20093186170E+000
+2.28091045523E+007, +5.37504473422E+001, +2.18715241012E+000
+2.30592046023E+007, +5.38441342173E+001, +2.17249112759E+000
+2.33093046523E+007, +5.39149486009E+001, +2.15544331083E+000
+2.35594047024E+007, +5.39957753343E+001, +2.14636009575E+000
+2.38095047524E+007, +5.40764195517E+001, +2.11796479611E+000
+2.40596048024E+007, +5.41623126038E+001, +2.10023882154E+000
+2.43097048524E+007, +5.42353850202E+001, +2.08732424524E+000
+2.45598049025E+007, +5.43174162384E+001, +2.06153246214E+000
+2.48099049525E+007, +5.44057268308E+001, +2.02294337768E+000
+2.50600050025E+007, +5.44887923103E+001, +2.00543992455E+000
+2.53101050525E+007, +5.45732513885E+001, +1.97465124420E+000
+2.55602051026E+007, +5.46648412976E+001, +1.94542761808E+000
+2.58103051526E+007, +5.47409749878E+001, +1.92177142818E+000
+2.60604052026E+007, +5.48298834967E+001, +1.87487552007E+000
+2.63105052526E+007, +5.49210662844E+001, +1.84389094740E+000
+2.65606053027E+007, +5.50029380911E+001, +1.80749780440E+000
+2.68107053527E+007, +5.50925416893E+001, +1.77835306116E+000
+2.70608054027E+007, +5.51804751991E+001, +1.73535094911E+000
+2.73109054527E+007, +5.52601860673E+001, +1.69310410448E+000
+2.75610055028E+007, +5.53576337792E+001, +1.64703893287E+000
+2.78111055528E+007, +5.54588800722E+001, +1.60059774358E+000
+2.80612056028E+007, +5.55358942811E+001, +1.56530449417E+000
+2.83113056528E+007, +5.56369685776E+001, +1.50595681023E+000
+2.85614057029E+007, +5.57245278344E+001, +1.45932785402E+000
+2.88115057529E+007, +5.58089165872E+001, +1.41094315797E+000
+2.90616058029E+007, +5.59055761580E+001, +1.33864443264E+000
+2.93117058529E+007, +5.60046233695E+001, +1.28808965785E+000
+2.95618059030E+007, +5.60909896903E+001, +1.23706865265E+000
+2.98119059530E+007, +5.61996217357E+001, +1.15956038725E+000
+3.00620060030E+007, +5.62891653899E+001, +1.10776675847E+000
+3.03121060530E+007, +5.63681527660E+001, +1.04142751535E+000
+3.05622061031E+007, +5.64669022750E+001, +9.76756562888E-001
+3.08123061531E+007, +5.65593304158E+001, +8.93274113099E-001
+3.10624062031E+007, +5.66670469202E+001, +8.19451172918E-001
+3.13125062531E+007, +5.67491958603E+001, +7.59735572404E-001
+3.15626063032E+007, +5.68543719956E+001, +6.76497359436E-001
+3.18127063532E+007, +5.69469950754E+001, +5.99464693907E-001
+3.20628064032E+007, +5.70464984139E+001, +5.09634435017E-001
+3.23129064532E+007, +5.71440362473E+001, +4.20152802703E-001
+3.25630065033E+007, +5.72363038107E+001, +3.44546874553E-001
+3.28131065533E+007, +5.73389974843E+001, +2.38206846129E-001
+3.30632066033E+007, +5.74283794196E+001, +1.48071569104E-001
+3.33133066533E+007, +5.75228659670E+001, +6.32941273392E-002
+3.35634067034E+007, +5.76220182406E+001, -3.31003042459E-002
+3.38135067534E+007, +5.77256586447E+001, -1.33849028124E-001
+3.40636068034E+007, +5.78249690491E+001, -2.41190095696E-001
+3.43137068534E+007, +5.79153475961E+001, -3.47781522124E-001
+3.45638069035E+007, +5.80105350596E+001, -4.54109234108E-001
+3.48139069535E+007, +5.81028208875E+001, -5.65812494848E-001
+3.50640070035E+007, +5.81965722661E+001, -6.95237233503E-001
+3.53141070535E+007, +5.82999958700E+001, -7.93813496346E-001
+3.55642071036E+007, +5.84019323144E+001, -9.34738655892E-001
+3.58143071536E+007, +5.84903241143E+001, -1.05875192294E+000
+3.60644072036E+007, +5.85871647184E+001, -1.18989618539E+000
+3.63145072536E+007, +5.86756287034E+001, -1.31099335155E+000
+3.65646073037E+007, +5.87700392130E+001, -1.45093811602E+000
+3.68147073537E+007, +5.88692658850E+001, -1.60031387622E+000
+3.70648074037E+007, +5.89775639354E+001, -1.73672647545E+000
+3.73149074537E+007, +5.90535846899E+001, -1.89329070060E+000
+3.75650075038E+007, +5.91496909894E+001, -2.04729472240E+000
+3.78151075538E+007, +5.92444790088E+001, -2.18296530441E+000
+3.80652076038E+007, +5.93193030469E+001, -2.34656278351E+000
+3.83153076538E+007, +5.94200650905E+001, -2.51705854139E+000
+3.85654077039E+007, +5.95129561697E+001, -2.68168801520E+000
+3.88155077539E+007, +5.95893494205E+001, -2.86879839120E+000
+3.90656078039E+007, +5.96893607952E+001, -3.03239442797E+000
+3.93157078539E+007, +5.97748073042E+001, -3.20617112808E+000
+3.95658079040E+007, +5.98708389124E+001, -3.39377127686E+000
+3.98159079540E+007, +5.99453661391E+001, -3.58646309584E+000
+4.00660080040E+007, +6.00423936684E+001, -3.77758099498E+000
+4.03161080540E+007, +6.01241264100E+001, -3.97906433814E+000
+4.05662081041E+007, +6.01976785825E+001, -4.17205740199E+000
+4.08163081541E+007, +6.02869942012E+001, -4.39979215255E+000
+4.10664082041E+007, +6.03600024067E+001, -4.62198168756E+000
+4.13165082541E+007, +6.04313235649E+001, -4.83930239578E+000
+4.15666083042E+007, +6.05036959837E+001, -5.05748232341E+000
+4.18167083542E+007, +6.05806428886E+001, -5.29493535819E+000
+4.20668084042E+007, +6.06582732371E+001, -5.52666182976E+000
+4.23169084542E+007, +6.07267695541E+001, -5.77070932607E+000
+4.25670085043E+007, +6.08028460097E+001, -6.03234674331E+000
+4.28171085543E+007, +6.08513520250E+001, -6.28358229703E+000
+4.30672086043E+007, +6.09216714955E+001, -6.54388735622E+000
+4.33173086543E+007, +6.09742421403E+001, -6.81943884118E+000
+4.35674087044E+007, +6.10374672392E+001, -7.09075464467E+000
+4.38175087544E+007, +6.10875410985E+001, -7.37933439067E+000
+4.40676088044E+007, +6.11428376128E+001, -7.66886239607E+000
+4.43177088544E+007, +6.12074717280E+001, -7.96045201063E+000
+4.45678089045E+007, +6.12181991647E+001, -8.27710441239E+000
+4.48179089545E+007, +6.12710821234E+001, -8.58855814800E+000
+4.50680090045E+007, +6.12970140439E+001, -8.90416643719E+000
+4.53181090545E+007, +6.13379375356E+001, -9.24323609707E+000
+4.55682091046E+007, +6.13617296157E+001, -9.58973340824E+000
+4.58183091546E+007, +6.13695690972E+001, -9.94653454614E+000
+4.60684092046E+007, +6.13888840281E+001, -1.02999991189E+001
+4.63185092546E+007, +6.14057514251E+001, -1.06702328978E+001
+4.65686093047E+007, +6.14070171256E+001, -1.10448435330E+001
+4.68187093547E+007, +6.13984469129E+001, -1.14382617960E+001
+4.70688094047E+007, +6.13957071180E+001, -1.18477304427E+001
+4.73189094547E+007, +6.13693392827E+001, -1.22631330162E+001
+4.75690095048E+007, +6.13581025260E+001, -1.26804584620E+001
+4.78191095548E+007, +6.13135104758E+001, -1.31304302140E+001
+4.80692096048E+007, +6.12602235548E+001, -1.35755768460E+001
+4.83193096548E+007, +6.12057954475E+001, -1.40384587428E+001
+4.85694097049E+007, +6.11344138053E+001, -1.45246569407E+001
+4.88195097549E+007, +6.10586450336E+001, -1.50107773307E+001
+4.90696098049E+007, +6.09715615234E+001, -1.55243704838E+001
+4.93197098549E+007, +6.08657887509E+001, -1.60358952142E+001
+4.95698099050E+007, +6.07332152512E+001, -1.65736108649E+001
+4.98199099550E+007, +6.06032435280E+001, -1.71322597954E+001
+5.00700100050E+007, +6.04432306372E+001, -1.77024061361E+001
+5.03201100550E+007, +6.02640123979E+001, -1.82903230188E+001
+5.05702101051E+007, +6.00594400617E+001, -1.88945155252E+001
+5.08203101551E+007, +5.98407696218E+001, -1.95089631105E+001
+5.10704102051E+007, +5.95960251439E+001, -2.01542658440E+001
+5.13205102551E+007, +5.93223043832E+001, -2.08172131642E+001
+5.15706103052E+007, +5.90050859023E+001, -2.14932725193E+001
+5.18207103552E+007, +5.86745188808E+001, -2.21887971030E+001
+5.20708104052E+007, +5.83084118104E+001, -2.28984468281E+001
+5.23209104552E+007, +5.78900295288E+001, -2.36348208281E+001
+5.25710105053E+007, +5.74404525223E+001, -2.43827141306E+001
+5.28211105553E+007, +5.69516227007E+001, -2.51510695091E+001
+5.30712106053E+007, +5.63962119476E+001, -2.59372277753E+001
+5.33213106553E+007, +5.57927943168E+001, -2.67355024013E+001
+5.35714107054E+007, +5.51275646313E+001, -2.75627822903E+001
+5.38215107554E+007, +5.44017492309E+001, -2.83925184883E+001
+5.40716108054E+007, +5.36076977161E+001, -2.92300158594E+001
+5.43217108554E+007, +5.27392305627E+001, -3.00597543624E+001
+5.45718109055E+007, +5.17842914780E+001, -3.09232696335E+001
+5.48219109555E+007, +5.07355402603E+001, -3.17584424581E+001
+5.50720110055E+007, +4.95967172211E+001, -3.25886721800E+001
+5.53221110555E+007, +4.83551893358E+001, -3.33909883756E+001
+5.55722111056E+007, +4.69811426983E+001, -3.41682543808E+001
+5.58223111556E+007, +4.55149459709E+001, -3.49052301996E+001
+5.60724112056E+007, +4.39261855949E+001, -3.55866823497E+001
+5.63225112556E+007, +4.22082837258E+001, -3.62066341320E+001
+5.65726113057E+007, +4.03602553702E+001, -3.67320773380E+001
+5.68227113557E+007, +3.83806317813E+001, -3.71253196900E+001
+5.70728114057E+007, +3.62566569924E+001, -3.74071851946E+001
+5.73229114557E+007, +3.40412315030E+001, -3.75296573991E+001
+5.75730115058E+007, +3.17065668390E+001, -3.74519140436E+001
+5.78231115558E+007, +2.92638302978E+001, -3.71713090158E+001
+5.80732116058E+007, +2.67784159403E+001, -3.66652082455E+001
+5.83233116558E+007, +2.42270343786E+001, -3.58865409970E+001
+5.85734117059E+007, +2.16653949165E+001, -3.48370734696E+001
+5.88235117559E+007, +1.91664345032E+001, -3.34939402250E+001
+5.90736118059E+007, +1.67373498369E+001, -3.18341605869E+001
+5.93237118559E+007, +1.44397529201E+001, -2.98823052748E+001
+5.95738119060E+007, +1.23164831540E+001, -2.76629853373E+001
+5.98239119560E+007, +1.04424816906E+001, -2.51914899838E+001
+6.00740120060E+007, +8.83142070624E+000, -2.25009713601E+001
+6.03241120560E+007, +7.53739896920E+000, -1.96348440227E+001
+6.05742121061E+007, +6.57908300558E+000, -1.66559618044E+001
+6.08243121561E+007, +5.96558760051E+000, -1.36154501780E+001
+6.10744122061E+007, +5.68627823206E+000, -1.05695886188E+001
+6.13245122561E+007, +5.75450084167E+000, -7.56591543862E+000
+6.15746123062E+007, +6.12612888226E+000, -4.67561135916E+000
+6.18247123562E+007, +6.78734144853E+000, -1.91735987895E+000
+6.20748124062E+007, +7.67829615129E+000, +6.64611875666E-001
+6.23249124562E+007, +8.78831354875E+000, +3.04974171137E+000
+6.25750125063E+007, +1.00452741330E+001, +5.22301591258E+000
+6.28251125563E+007, +1.14457791477E+001, +7.19484100453E+000
+6.30752126063E+007, +1.29272152170E+001, +8.94417677835E+000
+6.33253126563E+007, +1.44748148392E+001, +1.05031878386E+001
+6.35754127064E+007, +1.60557639654E+001, +1.18477035517E+001
+6.38255127564E+007, +1.76395033779E+001, +1.30181387336E+001
+6.40756128064E+007, +1.92347645692E+001, +1.40121485412E+001
+6.43257128564E+007, +2.07891264274E+001, +1.48454806533E+001
+6.45758129065E+007, +2.23165624041E+001, +1.55554969903E+001
+6.48259129565E+007, +2.37964347750E+001, +1.61170601712E+001
+6.50760130065E+007, +2.52482286014E+001, +1.65818324324E+001
+6.53261130565E+007, +2.66451896928E+001, +1.69339803829E+001
+6.55762131066E+007, +2.79832881929E+001, +1.72123661709E+001
+6.58263131566E+007, +2.92432000077E+001, +1.73907042522E+001
+6.60764132066E+007, +3.04578884457E+001, +1.75062006720E+001
+6.63265132566E+007, +3.16108667394E+001, +1.75814226675E+001
+6.65766133067E+007, +3.27225965835E+001, +1.75792024703E+001
+6.68267133567E+007, +3.37607103574E+001, +1.75437669715E+001
+6.70768134067E+007, +3.47607946410E+001, +1.74697902255E+001
+6.73269134567E+007, +3.56948058745E+001, +1.73594650659E+001
+6.75770135068E+007, +3.65847349428E+001, +1.72206447082E+001
+6.78271135568E+007, +3.74262278098E+001, +1.70589429223E+001
+6.80772136068E+007, +3.82212607205E+001, +1.68740706410E+001
+6.83273136568E+007, +3.89873574947E+001, +1.66869603623E+001
+6.85774137069E+007, +3.97013973971E+001, +1.64687258676E+001
+6.88275137569E+007, +4.03851953643E+001, +1.62356549214E+001
+6.90776138069E+007, +4.10359916730E+001, +1.59926125083E+001
+6.93277138569E+007, +4.16459975582E+001, +1.57528267620E+001
+6.95778139070E+007, +4.22208138945E+001, +1.55029468390E+001
+6.98279139570E+007, +4.27657604661E+001, +1.52450910901E+001
+7.00780140070E+007, +4.32767412241E+001, +1.49852039336E+001
+7.03281140570E+007, +4.37828754949E+001, +1.47078865478E+001
+7.05782141071E+007, +4.42260120116E+001, +1.44518303583E+001
+7.08283141571E+007, +4.46696729039E+001, +1.41797053060E+001
+7.10784142071E+007, +4.50903628580E+001, +1.39291717181E+001
+7.13285142571E+007, +4.54883739563E+001, +1.36617932008E+001
+7.15786143072E+007, +4.58564939132E+001, +1.34008864244E+001
+7.18287143572E+007, +4.62096511887E+001, +1.31400817430E+001
+7.20788144072E+007, +4.65462337814E+001, +1.28841009537E+001
+7.23289144572E+007, +4.68703873153E+001, +1.26188625115E+001
+7.25790145073E+007, +4.71767026779E+001, +1.23644770318E+001
+7.28291145573E+007, +4.74737658210E+001, +1.21164965542E+001
+7.30792146073E+007, +4.77468968077E+001, +1.18681685588E+001
+7.33293146573E+007, +4.80168204316E+001, +1.16206503674E+001
+7.35794147074E+007, +4.82691767673E+001, +1.13702028396E+001
+7.38295147574E+007, +4.85073033384E+001, +1.11248134200E+001
+7.40796148074E+007, +4.87250082647E+001, +1.08915180466E+001
+7.43297148574E+007, +4.89404323965E+001, +1.06391819298E+001
+7.45798149075E+007, +4.91345353159E+001, +1.04023641006E+001
+7.48299149575E+007, +4.93392323244E+001, +1.01684522518E+001
+7.50800150075E+007, +4.95162636148E+001, +9.93789558620E+000
+7.53301150575E+007, +4.96906573427E+001, +9.70650622972E+000
+7.55802151076E+007, +4.98480188569E+001, +9.47762594858E+000
+7.58303151576E+007, +5.00070644354E+001, +9.26497198553E+000
+7.60804152076E+007, +5.01402089465E+001, +9.04474444635E+000
+7.63305152576E+007, +5.02864688994E+001, +8.83680383606E+000
+7.65806153077E+007, +5.04139587015E+001, +8.61621044686E+000
+7.68307153577E+007, +5.05289335266E+001, +8.40439119320E+000
+7.70808154077E+007, +5.06517012918E+001, +8.19815601521E+000
+7.73309154577E+007, +5.07518776076E+001, +7.99740687173E+000
+7.75810155078E+007, +5.08481811251E+001, +7.80159047332E+000
+7.78311155578E+007, +5.09490946405E+001, +7.60698485603E+000
+7.80812156078E+007, +5.10242431852E+001, +7.42018332448E+000
+7.83313156578E+007, +5.11179005855E+001, +7.22089637711E+000
+7.85814157079E+007, +5.12011498248E+001, +7.04456052439E+000
+7.88315157579E+007, +5.12677676265E+001, +6.86276887058E+000
+7.90816158079E+007, +5.13304770122E+001, +6.68735770858E+000
+7.93317158579E+007, +5.13891748417E+001, +6.52822521483E+000
+7.95818159080E+007, +5.14518240210E+001, +6.34099201793E+000
+7.98319159580E+007, +5.15221184243E+001, +6.17378596443E+000
+8.00820160080E+007, +5.15576317081E+001, +6.01023748303E+000
