"# Channel 1"
"# Trace 1"
Frequency, Formatted Data, Formatted Data
+5.00000000000E+004, +5.21437361405E+001, -5.88964479021E-002
+3.00100050025E+005, +5.00433245860E+001, +6.38169818252E-002
+5.50200100050E+005, +5.00535543501E+001, +8.34676455018E-002
+8.00300150075E+005, +5.00301837752E+001, +1.79924547110E-001
+1.05040020010E+006, +5.00502247895E+001, +2.02610115098E-001
+1.30050025013E+006, +5.00466355438E+001, +2.95174681355E-001
+1.55060030015E+006, +5.00288667992E+001, +3.57396017370E-001
+1.80070035018E+006, +5.00264084764E+001, +3.92786176869E-001
+2.05080040020E+006, +5.00705290655E+001, +4.16773500456E-001
+2.30090045023E+006, +5.00774750957E+001, +4.83781168879E-001
+2.55100050025E+006, +5.01166505753E+001, +5.27602022912E-001
+2.80110055028E+006, +5.00845479366E+001, +5.32812356205E-001
+3.05120060030E+006, +5.00855800961E+001, +6.17701867810E-001
+3.30130065033E+006, +5.01458299738E+001, +7.04662496925E-001
+3.55140070035E+006, +5.01207887195E+001, +7.37378230525E-001
+3.80150075038E+006, +5.01976874712E+001, +7.81775289592E-001
+4.05160080040E+006, +5.01324946829E+001, +8.55004315774E-001
+4.30170085043E+006, +5.02120891418E+001, +8.52544068777E-001
+4.55180090045E+006, +5.02059586056E+001, +9.58156596902E-001
+4.80190095048E+006, +5.02527426015E+001, +9.67912580341E-001
+5.05200100050E+006, +5.01996448542E+001, +1.00896441779E+000
+5.30210105053E+006, +5.02811946514E+001, +1.04898876242E+000
+5.55220110055E+006, +5.02871775664E+001, +1.09311068349E+000
+5.80230115058E+006, +5.03147189711E+001, +1.16315926886E+000
+6.05240120060E+006, +5.03575263567E+001, +1.20914110797E+000
+6.30250125063E+006, +5.03908039042E+001, +1.24243350408E+000
+6.55260130065E+006, +5.03935232810E+001, +1.31262253036E+000
+6.80270135068E+006, +5.04608199938E+001, +1.31790133214E+000
+7.05280140070E+006, +5.04452617353E+001, +1.34870599080E+000
+7.30290145073E+006, +5.05129641100E+001, +1.43650910650E+000
+7.55300150075E+006, +5.05215548854E+001, +1.47567075397E+000
+7.80310155078E+006, +5.05557683952E+001, +1.49773055201E+000
+8.05320160080E+006, +5.06172557995E+001, +1.58872354379E+000
+8.30330165083E+006, +5.06517607589E+001, +1.58983320055E+000
+8.55340170085E+006, +5.06919235460E+001, +1.67920438707E+000
+8.80350175088E+006, +5.07322294920E+001, +1.70371538899E+000
+9.05360180090E+006, +5.07716018222E+001, +1.75880834941E+000
+9.30370185093E+006, +5.08083895813E+001, +1.79930287011E+000
+9.55380190095E+006, +5.08543091245E+001, +1.84929838494E+000
+9.80390195098E+006, +5.08994823771E+001, +1.88594107382E+000
+1.00540020010E+007, +5.09539213711E+001, +1.93280088954E+000
+1.03041020510E+007, +5.09854679852E+001, +1.96930322000E+000
+1.05542021011E+007, +5.10320619400E+001, +2.00358553665E+000
+1.08043021511E+007, +5.10901199996E+001, +2.05132934318E+000
+1.10544022011E+007, +5.11404160297E+001, +2.08231940753E+000
+1.13045022511E+007, +5.11874151965E+001, +2.11861903702E+000
+1.15546023012E+007, +5.12466423935E+001, +2.15023902462E+000
+1.18047023512E+007, +5.12943918885E+001, +2.19120025313E+000
+1.20548024012E+007, +5.13402396578E+001, +2.23576696532E+000
+1.23049024512E+007, +5.14099285200E+001, +2.27412464428E+000
+1.25550025013E+007, +5.14700097279E+001, +2.29744199607E+000
+1.28051025513E+007, +5.15291213085E+001, +2.33443975267E+000
+1.30552026013E+007, +5.15818472637E+001, +2.35730866542E+000
+1.33053026513E+007, +5.16426809670E+001, +2.39139766750E+000
+1.35554027014E+007, +5.17093062189E+001, +2.42496449325E+000
+1.38055027514E+007, +5.17604981969E+001, +2.45116642239E+000
+1.40556028014E+007, +5.18377745581E+001, +2.48531232753E+000
+1.43057028514E+007, +5.18957079551E+001, +2.52613543370E+000
+1.45558029015E+007, +5.19571374269E+001, +2.54398929649E+000
+1.48059029515E+007, +5.20336412732E+001, +2.57241168025E+000
+1.50560030015E+007, +5.21029085364E+001, +2.59452575095E+000
+1.53061030515E+007, +5.21651125482E+001, +2.62518841260E+000
+1.55562031016E+007, +5.22304937409E+001, +2.64050527797E+000
+1.58063031516E+007, +5.23132929890E+001, +2.67563496428E+000
+1.60564032016E+007, +5.23794903036E+001, +2.68624512130E+000
+1.63065032516E+007, +5.24545697241E+001, +2.70482469196E+000
+1.65566033017E+007, +5.25334702342E+001, +2.73666412888E+000
+1.68067033517E+007, +5.26038490730E+001, +2.76168320478E+000
+1.70568034017E+007, +5.26990454508E+001, +2.76728407845E+000
+1.73069034517E+007, +5.27729782959E+001, +2.78395312504E+000
+1.75570035018E+007, +5.28591336914E+001, +2.81104506758E+000
+1.78071035518E+007, +5.29366583839E+001, +2.80530367279E+000
+1.80572036018E+007, +5.30184046632E+001, +2.83706446530E+000
+1.83073036518E+007, +5.31139010826E+001, +2.84212813970E+000
+1.85574037019E+007, +5.31927797372E+001, +2.85182580490E+000
+1.88075037519E+007, +5.32763152957E+001, +2.85321684786E+000
+1.90576038019E+007, +5.33611591255E+001, +2.87030870286E+000
+1.93077038519E+007, +5.34471435695E+001, +2.87720465853E+000
+1.95578039020E+007, +5.35351773830E+001, +2.88556954330E+000
+1.98079039520E+007, +5.36223176221E+001, +2.88794657766E+000
+2.00580040020E+007, +5.37169869238E+001, +2.88593510520E+000
+2.03081040520E+007, +5.38033159897E+001, +2.88059648987E+000
+2.05582041021E+007, +5.39178590641E+001, +2.89148230928E+000
+2.08083041521E+007, +5.40009471908E+001, +2.88654080834E+000
+2.10584042021E+007, +5.40964738702E+001, +2.88215927065E+000
+2.13085042521E+007, +5.41918995761E+001, +2.86864438960E+000
+2.15586043022E+007, +5.43013287483E+001, +2.86581831849E+000
+2.18087043522E+007, +5.43987039507E+001, +2.86027170558E+000
+2.20588044022E+007, +5.45019026078E+001, +2.85230158163E+000
+2.23089044522E+007, +5.46041367897E+001, +2.82650940643E+000
+2.25590045023E+007, +5.47108652557E+001, +2.82656273031E+000
+2.28091045523E+007, +5.48123159842E+001, +2.81795183162E+000
+2.30592046023E+007, +5.49094877720E+001, +2.78878263868E+000
+2.33093046523E+007, +5.50122309678E+001, +2.76858082927E+000
+2.35594047024E+007, +5.51275380403E+001, +2.74317300092E+000
+2.38095047524E+007, +5.52349221071E+001, +2.71796143621E+000
+2.40596048024E+007, +5.53432777501E+001, +2.70732955856E+000
+2.43097048524E+007, +5.54586957010E+001, +2.67471406927E+000
+2.45598049025E+007, +5.55699156936E+001, +2.64366329451E+000
+2.48099049525E+007, +5.56714460092E+001, +2.60920683131E+000
+2.50600050025E+007, +5.58095709650E+001, +2.57974508917E+000
+2.53101050525E+007, +5.59106666580E+001, +2.54284936143E+000
+2.55602051026E+007, +5.60293835661E+001, +2.50234174442E+000
+2.58103051526E+007, +5.61569214981E+001, +2.46891161087E+000
+2.60604052026E+007, +5.62657146623E+001, +2.41634647165E+000
+2.63105052526E+007, +5.63850103134E+001, +2.38393190348E+000
+2.65606053027E+007, +5.64992081768E+001, +2.32515388337E+000
+2.68107053527E+007, +5.66234051751E+001, +2.28354882218E+000
+2.70608054027E+007, +5.67415014337E+001, +2.23307178907E+000
+2.73109054527E+007, +5.68788515802E+001, +2.17620607651E+000
+2.75610055028E+007, +5.69980225651E+001, +2.12680495663E+000
+2.78111055528E+007, +5.71217827878E+001, +2.06052072110E+000
+2.80612056028E+007, +5.72443922206E+001, +1.99924916025E+000
+2.83113056528E+007, +5.73768134855E+001, +1.92181938671E+000
+2.85614057029E+007, +5.75028548885E+001, +1.86545939805E+000
+2.88115057529E+007, +5.76483118893E+001, +1.78006439943E+000
+2.90616058029E+007, +5.77624424518E+001, +1.71597909254E+000
+2.93117058529E+007, +5.78886551429E+001, +1.65042214431E+000
+2.95618059030E+007, +5.80103311378E+001, +1.56423523710E+000
+2.98119059530E+007, +5.81645281612E+001, +1.48795944177E+000
+3.00620060030E+007, +5.82751419463E+001, +1.38249430086E+000
+3.03121060530E+007, +5.84190853261E+001, +1.28821920630E+000
+3.05622061031E+007, +5.85582449180E+001, +1.19525448972E+000
+3.08123061531E+007, +5.86975088830E+001, +1.10223548577E+000
+3.10624062031E+007, +5.88356598404E+001, +1.00013193864E+000
+3.13125062531E+007, +5.89626848640E+001, +9.01501812167E-001
+3.15626063032E+007, +5.91109754521E+001, +7.83969487535E-001
+3.18127063532E+007, +5.92470793139E+001, +6.79596265531E-001
+3.20628064032E+007, +5.93757361465E+001, +5.55130381006E-001
+3.23129064532E+007, +5.95206604221E+001, +4.32845891874E-001
+3.25630065033E+007, +5.96662195905E+001, +3.05319166497E-001
+3.28131065533E+007, +5.98035166055E+001, +1.91450043787E-001
+3.30632066033E+007, +5.99345064903E+001, +4.63599207699E-002
+3.33133066533E+007, +6.00778262370E+001, -9.49563602183E-002
+3.35634067034E+007, +6.02227024513E+001, -2.27383594961E-001
+3.38135067534E+007, +6.03660037183E+001, -3.68730019613E-001
+3.40636068034E+007, +6.05112895978E+001, -5.29569427081E-001
+3.43137068534E+007, +6.06443577922E+001, -6.74586569195E-001
+3.45638069035E+007, +6.07996380661E+001, -8.46366369482E-001
+3.48139069535E+007, +6.09419308695E+001, -1.02185977364E+000
+3.50640070035E+007, +6.10797680997E+001, -1.19123862066E+000
+3.53141070535E+007, +6.12201741523E+001, -1.36795079407E+000
+3.55642071036E+007, +6.13787363018E+001, -1.54039470517E+000
+3.58143071536E+007, +6.15145042332E+001, -1.73287489383E+000
+3.60644072036E+007, +6.16664224075E+001, -1.93548097418E+000
+3.63145072536E+007, +6.18001112364E+001, -2.14659221713E+000
+3.65646073037E+007, +6.19494935705E+001, -2.33402502392E+000
+3.68147073537E+007, +6.20774718197E+001, -2.54918475375E+000
+3.70648074037E+007, +6.22302178070E+001, -2.77103676473E+000
+3.73149074537E+007, +6.23788318552E+001, -3.00157172050E+000
+3.75650075038E+007, +6.25198300034E+001, -3.24008927323E+000
+3.78151075538E+007, +6.26632293059E+001, -3.46458926970E+000
+3.80652076038E+007, +6.28016367564E+001, -3.72669927378E+000
+3.83153076538E+007, +6.29376254388E+001, -3.97242052852E+000
+3.85654077039E+007, +6.30744417703E+001, -4.24746966324E+000
+3.88155077539E+007, +6.32072448033E+001, -4.51829866224E+000
+3.90656078039E+007, +6.33419973989E+001, -4.79959853911E+000
+3.93157078539E+007, +6.34715111748E+001, -5.08188346611E+000
+3.95658079040E+007, +6.36048390191E+001, -5.39514575085E+000
+3.98159079540E+007, +6.37347885235E+001, -5.69667345068E+000
+4.00660080040E+007, +6.38698260641E+001, -6.01246968446E+000
+4.03161080540E+007, +6.39888520975E+001, -6.33244359681E+000
+4.05662081041E+007, +6.41090145772E+001, -6.67904761615E+000
+4.08163081541E+007, +6.42278006342E+001, -7.02089148532E+000
+4.10664082041E+007, +6.43558162183E+001, -7.37745491279E+000
+4.13165082541E+007, +6.44660738678E+001, -7.76266173403E+000
+4.15666083042E+007, +6.45892846205E+001, -8.12871914696E+000
+4.18167083542E+007, +6.46835667735E+001, -8.54337952090E+000
+4.20668084042E+007, +6.47816662150E+001, -8.94173947504E+000
+4.23169084542E+007, +6.48700209917E+001, -9.34433512580E+000
+4.25670085043E+007, +6.49638902945E+001, -9.79491497451E+000
+4.28171085543E+007, +6.50483784734E+001, -1.02422193456E+001
+4.30672086043E+007, +6.51282905984E+001, -1.07019624333E+001
+4.33173086543E+007, +6.52100096714E+001, -1.11792033690E+001
+4.35674087044E+007, +6.52650855340E+001, -1.16653032291E+001
+4.38175087544E+007, +6.53232850435E+001, -1.21656059742E+001
+4.40676088044E+007, +6.53581837329E+001, -1.27075014381E+001
+4.43177088544E+007, +6.54161516857E+001, -1.32391556923E+001
+4.45678089045E+007, +6.54235749108E+001, -1.37938726139E+001
+4.48179089545E+007, +6.54484486678E+001, -1.43814250915E+001
+4.50680090045E+007, +6.54423541315E+001, -1.49667630516E+001
+4.53181090545E+007, +6.54311830989E+001, -1.55971061231E+001
+4.55682091046E+007, +6.53982655743E+001, -1.62239503877E+001
+4.58183091546E+007, +6.53593951332E+001, -1.68865077266E+001
+4.60684092046E+007, +6.52916562784E+001, -1.75582458339E+001
+4.63185092546E+007, +6.51998079800E+001, -1.82703385245E+001
+4.65686093047E+007, +6.51063641981E+001, -1.89918779560E+001
+4.68187093547E+007, +6.49752971184E+001, -1.97368172711E+001
+4.70688094047E+007, +6.48165407452E+001, -2.05022974781E+001
+4.73189094547E+007, +6.46280113445E+001, -2.13084422623E+001
+4.75690095048E+007, +6.43983470552E+001, -2.21341823301E+001
+4.78191095548E+007, +6.41618704045E+001, -2.29613193852E+001
+4.80692096048E+007, +6.38658872009E+001, -2.38622885320E+001
+4.83193096548E+007, +6.35458507830E+001, -2.47504909472E+001
+4.85694097049E+007, +6.31632536894E+001, -2.56796463496E+001
+4.88195097549E+007, +6.27490459588E+001, -2.66272219350E+001
+4.90696098049E+007, +6.22546153848E+001, -2.76012585661E+001
+4.93197098549E+007, +6.17218347744E+001, -2.85985871313E+001
+4.95698099050E+007, +6.11237510853E+001, -2.96171132086E+001
+4.98199099550E+007, +6.04629402074E+001, -3.06638019613E+001
+5.00700100050E+007, +5.97248562660E+001, -3.17017412883E+001
+5.03201100550E+007, +5.89040045814E+001, -3.27862715218E+001
+5.05702101051E+007, +5.79791135225E+001, -3.38643656196E+001
+5.08203101551E+007, +5.69642313374E+001, -3.49382510139E+001
+5.10704102051E+007, +5.58534950001E+001, -3.60169448827E+001
+5.13205102551E+007, +5.46345232735E+001, -3.70695515368E+001
+5.15706103052E+007, +5.32895365815E+001, -3.81242470356E+001
+5.18207103552E+007, +5.18441187173E+001, -3.91325908031E+001
+5.20708104052E+007, +5.02492350630E+001, -4.01062540832E+001
+5.23209104552E+007, +4.85528769901E+001, -4.09940299452E+001
+5.25710105053E+007, +4.66814285602E+001, -4.18205372332E+001
+5.28211105553E+007, +4.46903391049E+001, -4.25663770362E+001
+5.30712106053E+007, +4.25682326741E+001, -4.31765845162E+001
+5.33213106553E+007, +4.03086178661E+001, -4.36734823689E+001
+5.35714107054E+007, +3.79378497423E+001, -4.39716069378E+001
+5.38215107554E+007, +3.54515213323E+001, -4.41170065167E+001
+5.40716108054E+007, +3.28492201053E+001, -4.40350432653E+001
+5.43217108554E+007, +3.01751725000E+001, -4.37337712386E+001
+5.45718109055E+007, +2.74618905045E+001, -4.31661744321E+001
+5.48219109555E+007, +2.47479354797E+001, -4.23391664034E+001
+5.50720110055E+007, +2.20553088962E+001, -4.12344544475E+001
+5.53221110555E+007, +1.94267114451E+001, -3.98498035023E+001
+5.55722111056E+007, +1.68981075661E+001, -3.81831326553E+001
+5.58223111556E+007, +1.45007193302E+001, -3.62617661597E+001
+5.60724112056E+007, +1.23205508499E+001, -3.40917472136E+001
+5.63225112556E+007, +1.03598860623E+001, -3.17048390740E+001
+5.65726113057E+007, +8.62613054696E+000, -2.91282247615E+001
+5.68227113557E+007, +7.19485710519E+000, -2.64180305499E+001
+5.70728114057E+007, +6.03484616554E+000, -2.36133996735E+001
+5.73229114557E+007, +5.18408983794E+000, -2.07376081103E+001
+5.75730115058E+007, +4.62091074628E+000, -1.78544937947E+001
+5.78231115558E+007, +4.33750455906E+000, -1.49900830737E+001
+5.80732116058E+007, +4.32396953670E+000, -1.21970193237E+001
+5.83233116558E+007, +4.55792360789E+000, -9.48975300801E+000
+5.85734117059E+007, +5.01796777631E+000, -6.89936217161E+000
+5.88235117559E+007, +5.67696632937E+000, -4.45569836415E+000
+5.90736118059E+007, +6.48671997953E+000, -2.15623528541E+000
+5.93237118559E+007, +7.43686476916E+000, -2.61301426580E-002
+5.95738119060E+007, +8.51334065597E+000, +1.94191488272E+000
+5.98239119560E+007, +9.67334859110E+000, +3.74838584043E+000
+6.00740120060E+007, +1.08865370504E+001, +5.39336882648E+000
+6.03241120560E+007, +1.21615409945E+001, +6.89469656753E+000
+6.05742121061E+007, +1.34625074731E+001, +8.24242343584E+000
+6.08243121561E+007, +1.47886109574E+001, +9.45255567729E+000
+6.10744122061E+007, +1.61207330584E+001, +1.05204162440E+001
+6.13245122561E+007, +1.74347295581E+001, +1.14781898957E+001
+6.15746123062E+007, +1.87367391675E+001, +1.23281812423E+001
+6.18247123562E+007, +2.00403390208E+001, +1.30492480453E+001
+6.20748124062E+007, +2.13061015100E+001, +1.36884730067E+001
+6.23249124562E+007, +2.25465795919E+001, +1.42385204588E+001
+6.25750125063E+007, +2.37365974783E+001, +1.46958458602E+001
+6.28251125563E+007, +2.49146435292E+001, +1.51065157094E+001
+6.30752126063E+007, +2.60342655752E+001, +1.54322339567E+001
+6.33253126563E+007, +2.71318693429E+001, +1.57000665853E+001
+6.35754127064E+007, +2.81781489788E+001, +1.59094980533E+001
+6.38255127564E+007, +2.91964313357E+001, +1.60931487955E+001
+6.40756128064E+007, +3.01775338966E+001, +1.62148455970E+001
+6.43257128564E+007, +3.11235272887E+001, +1.63117929726E+001
+6.45758129065E+007, +3.20178412150E+001, +1.63617940219E+001
+6.48259129565E+007, +3.28900092671E+001, +1.63849542350E+001
+6.50760130065E+007, +3.37217755595E+001, +1.63869182492E+001
+6.53261130565E+007, +3.45192395709E+001, +1.63538265296E+001
+6.55762131066E+007, +3.52888748345E+001, +1.63097926068E+001
+6.58263131566E+007, +3.60286271472E+001, +1.62380492254E+001
+6.60764132066E+007, +3.67349025066E+001, +1.61500234793E+001
+6.63265132566E+007, +3.74112273137E+001, +1.60552639886E+001
+6.65766133067E+007, +3.80748788328E+001, +1.59348817806E+001
+6.68267133567E+007, +3.86969847118E+001, +1.57964812889E+001
+6.70768134067E+007, +3.93001195631E+001, +1.56570017575E+001
+6.73269134567E+007, +3.98612524368E+001, +1.55075802194E+001
+6.75770135068E+007, +4.04129749389E+001, +1.53517215514E+001
+6.78271135568E+007, +4.09473802983E+001, +1.51764752985E+001
+6.80772136068E+007, +4.14488355940E+001, +1.50028437740E+001
+6.83273136568E+007, +4.19458564836E+001, +1.48307090874E+001
+6.85774137069E+007, +4.23990905562E+001, +1.46454522426E+001
+6.88275137569E+007, +4.28467705593E+001, +1.44587664450E+001
+6.90776138069E+007, +4.32859196861E+001, +1.42731349881E+001
+6.93277138569E+007, +4.36932514463E+001, +1.40701963101E+001
+6.95778139070E+007, +4.40848534183E+001, +1.38746040589E+001
+6.98279139570E+007, +4.44642302701E+001, +1.36685208295E+001
+7.00780140070E+007, +4.48224760955E+001, +1.34625527441E+001
+7.03281140570E+007, +4.51768873572E+001, +1.32613157439E+001
+7.05782141071E+007, +4.55062199116E+001, +1.30572677769E+001
+7.08283141571E+007, +4.58184211004E+001, +1.28577441335E+001
+7.10784142071E+007, +4.61218466226E+001, +1.26488100373E+001
+7.13285142571E+007, +4.64127902413E+001, +1.24450476405E+001
+7.15786143072E+007, +4.66973862711E+001, +1.22495540926E+001
+7.18287143572E+007, +4.69718513660E+001, +1.20454022465E+001
+7.20788144072E+007, +4.72429891060E+001, +1.18418848783E+001
+7.23289144572E+007, +4.74816383072E+001, +1.16476621714E+001
+7.25790145073E+007, +4.77181347623E+001, +1.14515750696E+001
+7.28291145573E+007, +4.79536654540E+001, +1.12514976938E+001
+7.30792146073E+007, +4.81738407253E+001, +1.10563048660E+001
+7.33293146573E+007, +4.83859795135E+001, +1.08632837483E+001
+7.35794147074E+007, +4.85950675890E+001, +1.06535056548E+001
+7.38295147574E+007, +4.87889243260E+001, +1.04551980091E+001
+7.40796148074E+007, +4.89767630049E+001, +1.02593391830E+001
+7.43297148574E+007, +4.91563856480E+001, +1.00705644441E+001
+7.45798149075E+007, +4.93353642975E+001, +9.88751278633E+000
+7.48299149575E+007, +4.94862372128E+001, +9.68007340608E+000
+7.50800150075E+007, +4.96515119125E+001, +9.49397676216E+000
+7.53301150575E+007, +4.98012859575E+001, +9.30600245741E+000
+7.55802151076E+007, +4.99539279054E+001, +9.11603996438E+000
+7.58303151576E+007, +5.00834686976E+001, +8.93638204164E+000
+7.60804152076E+007, +5.02179031564E+001, +8.74673288805E+000
+7.63305152576E+007, +5.03336757667E+001, +8.56974438290E+000
+7.65806153077E+007, +5.04578963584E+001, +8.38490326840E+000
+7.68307153577E+007, +5.05627120867E+001, +8.20871442098E+000
+7.70808154077E+007, +5.06723067634E+001, +8.02699105108E+000
+7.73309154577E+007, +5.07726445824E+001, +7.85405680348E+000
+7.75810155078E+007, +5.08710881465E+001, +7.67977049147E+000
+7.78311155578E+007, +5.09536433664E+001, +7.50836261901E+000
+7.80812156078E+007, +5.10478349254E+001, +7.33669447421E+000
+7.83313156578E+007, +5.11265765228E+001, +7.16913732519E+000
+7.85814157079E+007, +5.12023575904E+001, +7.01308463898E+000
+7.88315157579E+007, +5.12708401838E+001, +6.84950355442E+000
+7.90816158079E+007, +5.13403200353E+001, +6.68645479850E+000
+7.93317158579E+007, +5.13983241931E+001, +6.54539953884E+000
+7.95818159080E+007, +5.14660539404E+001, +6.37411699466E+000
+7.98319159580E+007, +5.15242131624E+001, +6.20933876912E+000
+8.00820160080E+007, +5.15607968149E+001, +6.08193443379E+000
