"# Channel 1"
"# Trace 1"
Frequency, Formatted Data, Formatted Data
+5.00000000000E+004, +5.22056693392E+001, -2.07964154445E-001
+3.00100050025E+005, +5.00026648387E+001, +4.19631631947E-002
+5.50200100050E+005, +5.00150497196E+001, +5.36908031855E-002
+8.00300150075E+005, +5.00157562602E+001, +1.84988407585E-001
+1.05040020010E+006, +4.99556480500E+001, +2.34991315540E-001
+1.30050025013E+006, +5.00741102938E+001, +2.59943445420E-001
+1.55060030015E+006, +5.00303784991E+001, +3.04728482327E-001
+1.80070035018E+006, +5.00303994887E+001, +3.43166909463E-001
+2.05080040020E+006, +5.00629655316E+001, +4.00276028464E-001
+2.30090045023E+006, +5.00677435340E+001, +4.68464370972E-001
+2.55100050025E+006, +5.00682242131E+001, +4.61821332754E-001
+2.80110055028E+006, +5.00433386747E+001, +5.36212169468E-001
+3.05120060030E+006, +5.01178148060E+001, +6.24324989878E-001
+3.30130065033E+006, +5.01406245611E+001, +6.20807904250E-001
+3.55140070035E+006, +5.01132394962E+001, +7.26430234931E-001
+3.80150075038E+006, +5.01676262597E+001, +7.19499395712E-001
+4.05160080040E+006, +5.01927352021E+001, +8.04965257544E-001
+4.30170085043E+006, +5.01757439389E+001, +8.48516668695E-001
+4.55180090045E+006, +5.02139925732E+001, +8.59573352976E-001
+4.80190095048E+006, +5.01914170335E+001, +9.31274711400E-001
+5.05200100050E+006, +5.02281815438E+001, +9.45667415666E-001
+5.30210105053E+006, +5.02502404300E+001, +9.88340683619E-001
+5.55220110055E+006, +5.02639280116E+001, +1.04119250484E+000
+5.80230115058E+006, +5.03081991309E+001, +1.11201269753E+000
+6.05240120060E+006, +5.03336536194E+001, +1.14658118207E+000
+6.30250125063E+006, +5.03565078810E+001, +1.18036657406E+000
+6.55260130065E+006, +5.03608183126E+001, +1.24645383322E+000
+6.80270135068E+006, +5.04299855367E+001, +1.27812271460E+000
+7.05280140070E+006, +5.04422126368E+001, +1.29000038150E+000
+7.30290145073E+006, +5.04832432501E+001, +1.36027014937E+000
+7.55300150075E+006, +5.05123021059E+001, +1.40479934149E+000
+7.80310155078E+006, +5.05384982732E+001, +1.47181408307E+000
+8.05320160080E+006, +5.05747370183E+001, +1.46506230125E+000
+8.30330165083E+006, +5.06256364594E+001, +1.54895222569E+000
+8.55340170085E+006, +5.06399824043E+001, +1.57501858483E+000
+8.80350175088E+006, +5.06812076584E+001, +1.60851746838E+000
+9.05360180090E+006, +5.07131570340E+001, +1.66280756372E+000
+9.30370185093E+006, +5.07577305268E+001, +1.69893545298E+000
+9.55380190095E+006, +5.07958141624E+001, +1.73674173886E+000
+9.80390195098E+006, +5.08522493571E+001, +1.77079153733E+000
+1.00540020010E+007, +5.08899612959E+001, +1.81222535475E+000
+1.03041020510E+007, +5.09244945631E+001, +1.85180638392E+000
+1.05542021011E+007, +5.09705749020E+001, +1.89087046642E+000
+1.08043021511E+007, +5.10139872315E+001, +1.93156749900E+000
+1.10544022011E+007, +5.10530013294E+001, +1.96255709426E+000
+1.13045022511E+007, +5.11099818947E+001, +1.98913804058E+000
+1.15546023012E+007, +5.11667479637E+001, +2.04461689066E+000
+1.18047023512E+007, +5.12041132166E+001, +2.06032058287E+000
+1.20548024012E+007, +5.12467958448E+001, +2.10000597892E+000
+1.23049024512E+007, +5.13127161676E+001, +2.12580782631E+000
+1.25550025013E+007, +5.13618463433E+001, +2.16824429002E+000
+1.28051025513E+007, +5.14148399685E+001, +2.19215274166E+000
+1.30552026013E+007, +5.14724210055E+001, +2.22537991371E+000
+1.33053026513E+007, +5.15260830708E+001, +2.25194992292E+000
+1.35554027014E+007, +5.15783393522E+001, +2.27687887983E+000
+1.38055027514E+007, +5.16532162372E+001, +2.29806070067E+000
+1.40556028014E+007, +5.17065539239E+001, +2.34612041857E+000
+1.43057028514E+007, +5.17754633687E+001, +2.36465942389E+000
+1.45558029015E+007, +5.18272916247E+001, +2.38178992877E+000
+1.48059029515E+007, +5.18811548709E+001, +2.42890536992E+000
+1.50560030015E+007, +5.19620846950E+001, +2.43971941744E+000
+1.53061030515E+007, +5.20232818292E+001, +2.46682827444E+000
+1.55562031016E+007, +5.20955965031E+001, +2.48410216584E+000
+1.58063031516E+007, +5.21673629512E+001, +2.50830468362E+000
+1.60564032016E+007, +5.22257847365E+001, +2.53145022344E+000
+1.63065032516E+007, +5.22958924540E+001, +2.55098155319E+000
+1.65566033017E+007, +5.23560528406E+001, +2.56483962752E+000
+1.68067033517E+007, +5.24476344827E+001, +2.58987909461E+000
+1.70568034017E+007, +5.25176095546E+001, +2.60508652567E+000
+1.73069034517E+007, +5.25795166639E+001, +2.61882542190E+000
+1.75570035018E+007, +5.26693365134E+001, +2.63729931700E+000
+1.78071035518E+007, +5.27386362972E+001, +2.65026506138E+000
+1.80572036018E+007, +5.28207508920E+001, +2.66005455119E+000
+1.83073036518E+007, +5.28989783662E+001, +2.67207438553E+000
+1.85574037019E+007, +5.29667795798E+001, +2.67726716480E+000
+1.88075037519E+007, +5.30509397855E+001, +2.68723754640E+000
+1.90576038019E+007, +5.31308119223E+001, +2.69363896228E+000
+1.93077038519E+007, +5.32143984711E+001, +2.69425142590E+000
+1.95578039020E+007, +5.32966509746E+001, +2.70089679533E+000
+1.98079039520E+007, +5.33863826772E+001, +2.70138759246E+000
+2.00580040020E+007, +5.34684284303E+001, +2.71669454086E+000
+2.03081040520E+007, +5.35558426785E+001, +2.70816781233E+000
+2.05582041021E+007, +5.36410611998E+001, +2.70676857954E+000
+2.08083041521E+007, +5.37274858792E+001, +2.71090191134E+000
+2.10584042021E+007, +5.38286066613E+001, +2.70037510062E+000
+2.13085042521E+007, +5.39099403985E+001, +2.69689100227E+000
+2.15586043022E+007, +5.40018106578E+001, +2.68552884083E+000
+2.18087043522E+007, +5.41018000229E+001, +2.68813616372E+000
+2.20588044022E+007, +5.41857683475E+001, +2.67528414343E+000
+2.23089044522E+007, +5.42830833037E+001, +2.65904602766E+000
+2.25590045023E+007, +5.43734936409E+001, +2.63793959494E+000
+2.28091045523E+007, +5.44808696213E+001, +2.62707146693E+000
+2.30592046023E+007, +5.45645067365E+001, +2.62662063950E+000
+2.33093046523E+007, +5.46726718310E+001, +2.60192400665E+000
+2.35594047024E+007, +5.47666385801E+001, +2.57303657883E+000
+2.38095047524E+007, +5.48673590783E+001, +2.56053276849E+000
+2.40596048024E+007, +5.49725827512E+001, +2.53074895013E+000
+2.43097048524E+007, +5.50689685029E+001, +2.50179196445E+000
+2.45598049025E+007, +5.51736653617E+001, +2.48620516207E+000
+2.48099049525E+007, +5.52649940942E+001, +2.46060264767E+000
+2.50600050025E+007, +5.53886417066E+001, +2.42273886630E+000
+2.53101050525E+007, +5.54880518147E+001, +2.38382184645E+000
+2.55602051026E+007, +5.55910479314E+001, +2.35752774209E+000
+2.58103051526E+007, +5.56901967198E+001, +2.32636632552E+000
+2.60604052026E+007, +5.58059861817E+001, +2.27956565659E+000
+2.63105052526E+007, +5.59092150640E+001, +2.23551571513E+000
+2.65606053027E+007, +5.60268487401E+001, +2.19344868111E+000
+2.68107053527E+007, +5.61361064764E+001, +2.15640134060E+000
+2.70608054027E+007, +5.62403341727E+001, +2.10075561181E+000
+2.73109054527E+007, +5.63592994955E+001, +2.05223598895E+000
+2.75610055028E+007, +5.64721159138E+001, +1.99897207967E+000
+2.78111055528E+007, +5.65841539544E+001, +1.94160033943E+000
+2.80612056028E+007, +5.66871906007E+001, +1.88929606681E+000
+2.83113056528E+007, +5.68225428777E+001, +1.82254975140E+000
+2.85614057029E+007, +5.69285624939E+001, +1.77295006564E+000
+2.88115057529E+007, +5.70531969115E+001, +1.69459648032E+000
+2.90616058029E+007, +5.71650253380E+001, +1.63022375725E+000
+2.93117058529E+007, +5.72890429394E+001, +1.56333753688E+000
+2.95618059030E+007, +5.74103607552E+001, +1.49212572456E+000
+2.98119059530E+007, +5.75138327372E+001, +1.42125572208E+000
+3.00620060030E+007, +5.76291444790E+001, +1.32656137368E+000
+3.03121060530E+007, +5.77672820562E+001, +1.23989794938E+000
+3.05622061031E+007, +5.78898407819E+001, +1.15656191458E+000
+3.08123061531E+007, +5.80083251082E+001, +1.08193963172E+000
+3.10624062031E+007, +5.81286956939E+001, +9.83150779274E-001
+3.13125062531E+007, +5.82386316144E+001, +8.91411131219E-001
+3.15626063032E+007, +5.83762268407E+001, +7.81581604464E-001
+3.18127063532E+007, +5.84905925493E+001, +6.78567952045E-001
+3.20628064032E+007, +5.86260609092E+001, +5.76295776189E-001
+3.23129064532E+007, +5.87465812657E+001, +4.72473094763E-001
+3.25630065033E+007, +5.88797338884E+001, +3.65948121187E-001
+3.28131065533E+007, +5.89929700018E+001, +2.49868177879E-001
+3.30632066033E+007, +5.91394580195E+001, +1.26041431171E-001
+3.33133066533E+007, +5.92531850308E+001, -3.48851197162E-003
+3.35634067034E+007, +5.93757764495E+001, -1.22144795720E-001
+3.38135067534E+007, +5.94992641991E+001, -2.67050927081E-001
+3.40636068034E+007, +5.96397113017E+001, -3.74068260997E-001
+3.43137068534E+007, +5.97616539128E+001, -5.16359449285E-001
+3.45638069035E+007, +5.98941617806E+001, -6.64872891007E-001
+3.48139069535E+007, +6.00289444330E+001, -8.11224050266E-001
+3.50640070035E+007, +6.01424945891E+001, -9.67351273859E-001
+3.53141070535E+007, +6.02735020748E+001, -1.11979551452E+000
+3.55642071036E+007, +6.03993998430E+001, -1.29079128955E+000
+3.58143071536E+007, +6.05204509349E+001, -1.45223128800E+000
+3.60644072036E+007, +6.06654422608E+001, -1.61771381384E+000
+3.63145072536E+007, +6.07807550302E+001, -1.79364898642E+000
+3.65646073037E+007, +6.09083618240E+001, -1.99207830619E+000
+3.68147073537E+007, +6.10317931628E+001, -2.17044905803E+000
+3.70648074037E+007, +6.11564960992E+001, -2.35814623451E+000
+3.73149074537E+007, +6.12743075092E+001, -2.55340763945E+000
+3.75650075038E+007, +6.14146959886E+001, -2.76920127728E+000
+3.78151075538E+007, +6.15342529096E+001, -2.97345669940E+000
+3.80652076038E+007, +6.16659625307E+001, -3.18325610778E+000
+3.83153076538E+007, +6.17723893053E+001, -3.41006405916E+000
+3.85654077039E+007, +6.19114510786E+001, -3.62823501045E+000
+3.88155077539E+007, +6.20190556910E+001, -3.86068853833E+000
+3.90656078039E+007, +6.21281766980E+001, -4.11539716572E+000
+3.93157078539E+007, +6.22700139950E+001, -4.36228601240E+000
+3.95658079040E+007, +6.23777027483E+001, -4.61478999602E+000
+3.98159079540E+007, +6.25065601254E+001, -4.87209805421E+000
+4.00660080040E+007, +6.25962036521E+001, -5.16108871176E+000
+4.03161080540E+007, +6.27055503453E+001, -5.42786297441E+000
+4.05662081041E+007, +6.28190437236E+001, -5.71680744608E+000
+4.08163081541E+007, +6.29263756393E+001, -6.01201963546E+000
+4.10664082041E+007, +6.30311034516E+001, -6.30911056700E+000
+4.13165082541E+007, +6.31351053225E+001, -6.62511264911E+000
+4.15666083042E+007, +6.32409589121E+001, -6.94309431426E+000
+4.18167083542E+007, +6.33339612341E+001, -7.27983542617E+000
+4.20668084042E+007, +6.34271535758E+001, -7.61330745921E+000
+4.23169084542E+007, +6.35175104997E+001, -7.97555745002E+000
+4.25670085043E+007, +6.36022747214E+001, -8.34255749172E+000
+4.28171085543E+007, +6.36856812885E+001, -8.70954496094E+000
+4.30672086043E+007, +6.37660022063E+001, -9.09156561745E+000
+4.33173086543E+007, +6.38389736368E+001, -9.47927217473E+000
+4.35674087044E+007, +6.38945031686E+001, -9.88554307882E+000
+4.38175087544E+007, +6.39619169261E+001, -1.03130574491E+001
+4.40676088044E+007, +6.40176232238E+001, -1.07446957786E+001
+4.43177088544E+007, +6.40506920958E+001, -1.11841044585E+001
+4.45678089045E+007, +6.40943688930E+001, -1.16447879572E+001
+4.48179089545E+007, +6.41323204891E+001, -1.21238119743E+001
+4.50680090045E+007, +6.41583129369E+001, -1.26078896249E+001
+4.53181090545E+007, +6.41640767774E+001, -1.31082800457E+001
+4.55682091046E+007, +6.41747384077E+001, -1.36236372907E+001
+4.58183091546E+007, +6.41670170711E+001, -1.41577650759E+001
+4.60684092046E+007, +6.41559856334E+001, -1.47037778445E+001
+4.63185092546E+007, +6.41090874728E+001, -1.52858126055E+001
+4.65686093047E+007, +6.40612451300E+001, -1.58729388532E+001
+4.68187093547E+007, +6.40058433638E+001, -1.64794324563E+001
+4.70688094047E+007, +6.39321974522E+001, -1.70974423186E+001
+4.73189094547E+007, +6.38465737427E+001, -1.77390234489E+001
+4.75690095048E+007, +6.37130364514E+001, -1.83994225435E+001
+4.78191095548E+007, +6.35735220280E+001, -1.90923225907E+001
+4.80692096048E+007, +6.34231318164E+001, -1.97858087741E+001
+4.83193096548E+007, +6.32181781291E+001, -2.05213150008E+001
+4.85694097049E+007, +6.30076718630E+001, -2.12771908458E+001
+4.88195097549E+007, +6.27681798334E+001, -2.20386543613E+001
+4.90696098049E+007, +6.24865156606E+001, -2.28325787466E+001
+4.93197098549E+007, +6.21728629004E+001, -2.36656015298E+001
+4.95698099050E+007, +6.18199029553E+001, -2.44998569828E+001
+4.98199099550E+007, +6.14264276317E+001, -2.53715933670E+001
+5.00700100050E+007, +6.09728782739E+001, -2.62532572780E+001
+5.03201100550E+007, +6.04720619054E+001, -2.71492594294E+001
+5.05702101051E+007, +5.99348742412E+001, -2.80860922404E+001
+5.08203101551E+007, +5.93086750729E+001, -2.90315521277E+001
+5.10704102051E+007, +5.86459190948E+001, -2.99901234666E+001
+5.13205102551E+007, +5.78892522166E+001, -3.09686789766E+001
+5.15706103052E+007, +5.70677348801E+001, -3.19504668914E+001
+5.18207103552E+007, +5.61568273486E+001, -3.29490035543E+001
+5.20708104052E+007, +5.51714321149E+001, -3.39494313647E+001
+5.23209104552E+007, +5.40610661522E+001, -3.49399004139E+001
+5.25710105053E+007, +5.28735140126E+001, -3.59149592237E+001
+5.28211105553E+007, +5.15486475595E+001, -3.68738991694E+001
+5.30712106053E+007, +5.01283537048E+001, -3.77941851268E+001
+5.33213106553E+007, +4.85828956075E+001, -3.86831440186E+001
+5.35714107054E+007, +4.69042084251E+001, -3.95056864586E+001
+5.38215107554E+007, +4.51009189125E+001, -4.02682241393E+001
+5.40716108054E+007, +4.31621480502E+001, -4.09228603947E+001
+5.43217108554E+007, +4.10912990699E+001, -4.14567506341E+001
+5.45718109055E+007, +3.88813026710E+001, -4.18800537152E+001
+5.48219109555E+007, +3.65617119356E+001, -4.21363748282E+001
+5.50720110055E+007, +3.41328467439E+001, -4.22034359077E+001
+5.53221110555E+007, +3.16201102667E+001, -4.20652089944E+001
+5.55722111056E+007, +2.90239700143E+001, -4.17138617769E+001
+5.58223111556E+007, +2.63887721685E+001, -4.10993882040E+001
+5.60724112056E+007, +2.37372891111E+001, -4.02217343186E+001
+5.63225112556E+007, +2.11082385851E+001, -3.90824776801E+001
+5.65726113057E+007, +1.85405702847E+001, -3.76445275105E+001
+5.68227113557E+007, +1.60832437993E+001, -3.59562660160E+001
+5.70728114057E+007, +1.37548768824E+001, -3.39670112894E+001
+5.73229114557E+007, +1.16307742643E+001, -3.17506778816E+001
+5.75730115058E+007, +9.74614172285E+000, -2.93085916269E+001
+5.78231115558E+007, +8.11052795955E+000, -2.66813747284E+001
+5.80732116058E+007, +6.76163393353E+000, -2.39129678249E+001
+5.83233116558E+007, +5.71125310231E+000, -2.10460615435E+001
+5.85734117059E+007, +4.96527067183E+000, -1.81329657395E+001
+5.88235117559E+007, +4.53041433075E+000, -1.52028311465E+001
+5.90736118059E+007, +4.37830425733E+000, -1.23143671995E+001
+5.93237118559E+007, +4.50842354130E+000, -9.49713721636E+000
+5.95738119060E+007, +4.87781108000E+000, -6.78435457361E+000
+5.98239119560E+007, +5.48610715640E+000, -4.21010869861E+000
+6.00740120060E+007, +6.28020598679E+000, -1.78671001109E+000
+6.03241120560E+007, +7.23623526014E+000, +4.75162933266E-001
+6.05742121061E+007, +8.32141426007E+000, +2.56551566299E+000
+6.08243121561E+007, +9.52904585882E+000, +4.47589513103E+000
+6.10744122061E+007, +1.08168755155E+001, +6.20933920351E+000
+6.13245122561E+007, +1.21565352824E+001, +7.76895950079E+000
+6.15746123062E+007, +1.35397157994E+001, +9.18048833554E+000
+6.18247123562E+007, +1.49517989669E+001, +1.04351978880E+001
+6.20748124062E+007, +1.63592819385E+001, +1.15312248350E+001
+6.23249124562E+007, +1.77703052326E+001, +1.24957149163E+001
+6.25750125063E+007, +1.91589839944E+001, +1.33354898974E+001
+6.28251125563E+007, +2.05321458128E+001, +1.40455104468E+001
+6.30752126063E+007, +2.18521302809E+001, +1.46777637873E+001
+6.33253126563E+007, +2.31590107583E+001, +1.52063563079E+001
+6.35754127064E+007, +2.44284777778E+001, +1.56434154869E+001
+6.38255127564E+007, +2.56442626607E+001, +1.59952074304E+001
+6.40756128064E+007, +2.68275250814E+001, +1.62974352104E+001
+6.43257128564E+007, +2.79557190783E+001, +1.65373860984E+001
+6.45758129065E+007, +2.90665503361E+001, +1.66961108731E+001
+6.48259129565E+007, +3.01094725192E+001, +1.68273757703E+001
+6.50760130065E+007, +3.11201992547E+001, +1.69231972371E+001
+6.53261130565E+007, +3.20783792286E+001, +1.69647111938E+001
+6.55762131066E+007, +3.30038993024E+001, +1.69665830804E+001
+6.58263131566E+007, +3.38979044354E+001, +1.69591924940E+001
+6.60764132066E+007, +3.47455476289E+001, +1.69080146867E+001
+6.63265132566E+007, +3.55628530328E+001, +1.68130805085E+001
+6.65766133067E+007, +3.63379418011E+001, +1.67329087167E+001
+6.68267133567E+007, +3.70798379689E+001, +1.66070386708E+001
+6.70768134067E+007, +3.77857728561E+001, +1.64781772960E+001
+6.73269134567E+007, +3.84625725114E+001, +1.63309047062E+001
+6.75770135068E+007, +3.91087501695E+001, +1.61736349066E+001
+6.78271135568E+007, +3.97357954579E+001, +1.60104657892E+001
+6.80772136068E+007, +4.03203308274E+001, +1.58242146942E+001
+6.83273136568E+007, +4.08925169265E+001, +1.56363345695E+001
+6.85774137069E+007, +4.14338702431E+001, +1.54468624217E+001
+6.88275137569E+007, +4.19544954598E+001, +1.52461221376E+001
+6.90776138069E+007, +4.24453806547E+001, +1.50311586743E+001
+6.93277138569E+007, +4.29246622920E+001, +1.48294095824E+001
+6.95778139070E+007, +4.33678009745E+001, +1.46027847305E+001
+6.98279139570E+007, +4.38039455682E+001, +1.43975557400E+001
+7.00780140070E+007, +4.42259103387E+001, +1.41834059127E+001
+7.03281140570E+007, +4.46064799161E+001, +1.39444222678E+001
+7.05782141071E+007, +4.49902777543E+001, +1.37329624206E+001
+7.08283141571E+007, +4.53465968482E+001, +1.35045461696E+001
+7.10784142071E+007, +4.56859705278E+001, +1.32902159319E+001
+7.13285142571E+007, +4.60230377763E+001, +1.30585756009E+001
+7.15786143072E+007, +4.63369860936E+001, +1.28380602944E+001
+7.18287143572E+007, +4.66292277854E+001, +1.26155672845E+001
+7.20788144072E+007, +4.69255148759E+001, +1.24001222884E+001
+7.23289144572E+007, +4.72009162367E+001, +1.21784628749E+001
+7.25790145073E+007, +4.74717998879E+001, +1.19635285092E+001
+7.28291145573E+007, +4.77257936704E+001, +1.17531485840E+001
+7.30792146073E+007, +4.79709091124E+001, +1.15323611131E+001
+7.33293146573E+007, +4.82106766604E+001, +1.13160917257E+001
+7.35794147074E+007, +4.84286937414E+001, +1.10974407846E+001
+7.38295147574E+007, +4.86454730526E+001, +1.08786122332E+001
+7.40796148074E+007, +4.88435603934E+001, +1.06764981530E+001
+7.43297148574E+007, +4.90412594703E+001, +1.04662655633E+001
+7.45798149075E+007, +4.92288844948E+001, +1.02511793566E+001
+7.48299149575E+007, +4.94048185631E+001, +1.00362338026E+001
+7.50800150075E+007, +4.95733410653E+001, +9.83579953253E+000
+7.53301150575E+007, +4.97307028049E+001, +9.63135539402E+000
+7.55802151076E+007, +4.98914904820E+001, +9.43736730683E+000
+7.58303151576E+007, +5.00354645042E+001, +9.23388697354E+000
+7.60804152076E+007, +5.01802903950E+001, +9.02607359492E+000
+7.63305152576E+007, +5.03136242378E+001, +8.84786910390E+000
+7.65806153077E+007, +5.04262950796E+001, +8.63890881867E+000
+7.68307153577E+007, +5.05509858522E+001, +8.45908887667E+000
+7.70808154077E+007, +5.06552466264E+001, +8.26437631639E+000
+7.73309154577E+007, +5.07607084431E+001, +8.07919697359E+000
+7.75810155078E+007, +5.08542232863E+001, +7.89696727020E+000
+7.78311155578E+007, +5.09610521105E+001, +7.71524885645E+000
+7.80812156078E+007, +5.10430671396E+001, +7.53437450130E+000
+7.83313156578E+007, +5.11385711470E+001, +7.35749890358E+000
+7.85814157079E+007, +5.12116812498E+001, +7.18807410131E+000
+7.88315157579E+007, +5.12849843216E+001, +7.01223826622E+000
+7.90816158079E+007, +5.13587846422E+001, +6.84651095026E+000
+7.93317158579E+007, +5.14116868896E+001, +6.68337736180E+000
+7.95818159080E+007, +5.14784288993E+001, +6.52813803134E+000
+7.98319159580E+007, +5.15385407009E+001, +6.36201722763E+000
+8.00820160080E+007, +5.16068799869E+001, +6.19990404856E+000
